hour, t(sec), V1, VAngle1, V2, VAngle2, I1, IAngle1, I2, IAngle2
1, 0.00000, 2338.72, -123.611, 0, 0, 4.25069, -123.611, 4.25069, 56.3892
2, 0.00000, 2339.07, -123.603, 0, 0, 3.88713, -123.603, 3.88713, 56.3966
3, 0.00000, 2338.17, -123.622, 0, 0, 3.81132, -123.622, 3.81132, 56.3778
4, 0.00000, 2337.98, -123.627, 0, 0, 3.78475, -123.626, 3.78475, 56.3735
5, 0.00000, 2332.01, -123.748, 0, 0, 4.25803, -123.746, 4.25803, 56.2537
6, 0.00000, 2329.49, -123.798, 0, 0, 5.2496, -123.797, 5.2496, 56.2028
7, 0.00000, 2312.45, -124.142, 0, 0, 6.4349, -124.142, 6.4349, 55.8577
8, 0.00000, 2322.55, -123.927, 0, 0, 5.82586, -123.932, 5.82586, 56.0684
9, 0.00000, 2316.15, -124.048, 0, 0, 5.16898, -124.048, 5.16898, 55.9517
10, 0.00000, 2319.16, -123.99, 0, 0, 4.56836, -123.99, 4.56836, 56.0099
11, 0.00000, 2320.26, -123.973, 0, 0, 3.91529, -123.973, 3.91529, 56.0265
12, 0.00000, 2319.78, -123.984, 0, 0, 3.93737, -123.984, 3.93737, 56.0159
13, 0.00000, 2320.62, -123.968, 0, 0, 3.90359, -123.968, 3.90359, 56.0316
14, 0.00000, 2322.12, -123.938, 0, 0, 3.80437, -123.939, 3.80437, 56.0612
15, 0.00000, 2321.87, -123.943, 0, 0, 3.77156, -123.943, 3.77156, 56.0571
16, 0.00000, 2320.89, -123.962, 0, 0, 4.06602, -123.962, 4.06602, 56.038
17, 0.00000, 2319.48, -123.989, 0, 0, 5.69397, -123.989, 5.69397, 56.0114
18, 0.00000, 2313.5, -124.113, 0, 0, 7.98892, -124.111, 7.98892, 55.889
19, 0.00000, 2309.97, -124.188, 0, 0, 9.2325, -124.188, 9.2325, 55.8122
20, 0.00000, 2311.39, -124.159, 0, 0, 9.01191, -124.159, 9.01191, 55.8414
21, 0.00000, 2317.29, -124.04, 0, 0, 8.89773, -124.04, 8.89773, 55.96
22, 0.00000, 2321.27, -123.96, 0, 0, 7.74992, -123.96, 7.74992, 56.0396
23, 0.00000, 2329.58, -123.796, 0, 0, 6.3837, -123.796, 6.3837, 56.2038
24, 0.00000, 2332.71, -123.738, 0, 0, 5.27556, -123.738, 5.27556, 56.2623
25, 0.00000, 2338.76, -123.615, 0, 0, 4.25062, -123.615, 4.25062, 56.385
26, 0.00000, 2339.1, -123.608, 0, 0, 3.88707, -123.608, 3.88707, 56.3922
27, 0.00000, 2338.21, -123.627, 0, 0, 3.81125, -123.626, 3.81125, 56.374
28, 0.00000, 2338.02, -123.631, 0, 0, 3.78469, -123.631, 3.78469, 56.3693
29, 0.00000, 2332.05, -123.752, 0, 0, 4.25793, -123.747, 4.25793, 56.2528
30, 0.00000, 2329.53, -123.802, 0, 0, 5.24951, -123.8, 5.24951, 56.1999
31, 0.00000, 2312.45, -124.142, 0, 0, 6.4349, -124.142, 6.4349, 55.8578
32, 0.00000, 2322.55, -123.927, 0, 0, 5.82586, -123.932, 5.82586, 56.0684
33, 0.00000, 2316.15, -124.048, 0, 0, 5.16898, -124.048, 5.16898, 55.9517
34, 0.00000, 2319.16, -123.99, 0, 0, 4.56836, -123.99, 4.56836, 56.0099
35, 0.00000, 2320.26, -123.973, 0, 0, 3.91529, -123.973, 3.91529, 56.0265
36, 0.00000, 2319.78, -123.984, 0, 0, 3.93737, -123.984, 3.93737, 56.0159
37, 0.00000, 2320.62, -123.968, 0, 0, 3.90359, -123.968, 3.90359, 56.0316
38, 0.00000, 2322.12, -123.938, 0, 0, 3.80437, -123.939, 3.80437, 56.0612
39, 0.00000, 2321.87, -123.943, 0, 0, 3.77156, -123.943, 3.77156, 56.0571
40, 0.00000, 2320.89, -123.962, 0, 0, 4.06602, -123.962, 4.06602, 56.038
41, 0.00000, 2319.48, -123.989, 0, 0, 5.69397, -123.989, 5.69397, 56.0114
42, 0.00000, 2313.5, -124.113, 0, 0, 7.98892, -124.111, 7.98892, 55.889
43, 0.00000, 2309.97, -124.188, 0, 0, 9.2325, -124.188, 9.2325, 55.8122
44, 0.00000, 2311.39, -124.159, 0, 0, 9.01191, -124.159, 9.01191, 55.8414
45, 0.00000, 2317.29, -124.04, 0, 0, 8.89773, -124.04, 8.89773, 55.96
46, 0.00000, 2321.27, -123.96, 0, 0, 7.74992, -123.96, 7.74992, 56.0396
47, 0.00000, 2329.58, -123.796, 0, 0, 6.3837, -123.796, 6.3837, 56.2038
48, 0.00000, 2332.71, -123.738, 0, 0, 5.27556, -123.738, 5.27556, 56.2623
49, 0.00000, 2338.76, -123.615, 0, 0, 4.25062, -123.615, 4.25062, 56.385
50, 0.00000, 2339.1, -123.608, 0, 0, 3.88707, -123.608, 3.88707, 56.3922
51, 0.00000, 2338.21, -123.627, 0, 0, 3.81125, -123.626, 3.81125, 56.374
52, 0.00000, 2338.02, -123.631, 0, 0, 3.78469, -123.631, 3.78469, 56.3693
53, 0.00000, 2332.05, -123.752, 0, 0, 4.25793, -123.747, 4.25793, 56.2528
54, 0.00000, 2329.53, -123.802, 0, 0, 5.24951, -123.8, 5.24951, 56.1999
55, 0.00000, 2312.45, -124.142, 0, 0, 6.4349, -124.142, 6.4349, 55.8578
56, 0.00000, 2322.55, -123.927, 0, 0, 5.82586, -123.932, 5.82586, 56.0684
57, 0.00000, 2316.15, -124.048, 0, 0, 5.16898, -124.048, 5.16898, 55.9517
58, 0.00000, 2319.16, -123.99, 0, 0, 4.56836, -123.99, 4.56836, 56.0099
59, 0.00000, 2320.26, -123.973, 0, 0, 3.91529, -123.973, 3.91529, 56.0265
60, 0.00000, 2319.78, -123.984, 0, 0, 3.93737, -123.984, 3.93737, 56.0159
61, 0.00000, 2320.62, -123.968, 0, 0, 3.90359, -123.968, 3.90359, 56.0316
62, 0.00000, 2322.12, -123.938, 0, 0, 3.80437, -123.939, 3.80437, 56.0612
63, 0.00000, 2321.87, -123.943, 0, 0, 3.77156, -123.943, 3.77156, 56.0571
64, 0.00000, 2320.89, -123.962, 0, 0, 4.06602, -123.962, 4.06602, 56.038
65, 0.00000, 2319.48, -123.989, 0, 0, 5.69397, -123.989, 5.69397, 56.0114
66, 0.00000, 2313.5, -124.113, 0, 0, 7.98892, -124.111, 7.98892, 55.889
67, 0.00000, 2309.97, -124.188, 0, 0, 9.2325, -124.188, 9.2325, 55.8122
68, 0.00000, 2311.39, -124.159, 0, 0, 9.01191, -124.159, 9.01191, 55.8414
69, 0.00000, 2317.29, -124.04, 0, 0, 8.89773, -124.04, 8.89773, 55.96
70, 0.00000, 2321.27, -123.96, 0, 0, 7.74992, -123.96, 7.74992, 56.0396
71, 0.00000, 2329.58, -123.796, 0, 0, 6.3837, -123.796, 6.3837, 56.2038
72, 0.00000, 2332.71, -123.738, 0, 0, 5.27556, -123.738, 5.27556, 56.2623
73, 0.00000, 2338.76, -123.615, 0, 0, 4.25062, -123.615, 4.25062, 56.385
74, 0.00000, 2339.1, -123.608, 0, 0, 3.88707, -123.608, 3.88707, 56.3922
75, 0.00000, 2338.21, -123.627, 0, 0, 3.81125, -123.626, 3.81125, 56.374
76, 0.00000, 2338.02, -123.631, 0, 0, 3.78469, -123.631, 3.78469, 56.3693
77, 0.00000, 2332.05, -123.752, 0, 0, 4.25793, -123.747, 4.25793, 56.2528
78, 0.00000, 2329.53, -123.802, 0, 0, 5.24951, -123.8, 5.24951, 56.1999
79, 0.00000, 2312.45, -124.142, 0, 0, 6.4349, -124.142, 6.4349, 55.8578
80, 0.00000, 2322.55, -123.927, 0, 0, 5.82586, -123.932, 5.82586, 56.0684
81, 0.00000, 2316.15, -124.048, 0, 0, 5.16898, -124.048, 5.16898, 55.9517
82, 0.00000, 2319.16, -123.99, 0, 0, 4.56836, -123.99, 4.56836, 56.0099
83, 0.00000, 2320.26, -123.973, 0, 0, 3.91529, -123.973, 3.91529, 56.0265
84, 0.00000, 2319.78, -123.984, 0, 0, 3.93737, -123.984, 3.93737, 56.0159
85, 0.00000, 2320.62, -123.968, 0, 0, 3.90359, -123.968, 3.90359, 56.0316
86, 0.00000, 2322.12, -123.938, 0, 0, 3.80437, -123.939, 3.80437, 56.0612
87, 0.00000, 2321.87, -123.943, 0, 0, 3.77156, -123.943, 3.77156, 56.0571
88, 0.00000, 2320.89, -123.962, 0, 0, 4.06602, -123.962, 4.06602, 56.038
89, 0.00000, 2319.48, -123.989, 0, 0, 5.69397, -123.989, 5.69397, 56.0114
90, 0.00000, 2313.5, -124.113, 0, 0, 7.98892, -124.111, 7.98892, 55.889
91, 0.00000, 2309.97, -124.188, 0, 0, 9.2325, -124.188, 9.2325, 55.8122
92, 0.00000, 2311.39, -124.159, 0, 0, 9.01191, -124.159, 9.01191, 55.8414
93, 0.00000, 2317.29, -124.04, 0, 0, 8.89773, -124.04, 8.89773, 55.96
94, 0.00000, 2321.27, -123.96, 0, 0, 7.74992, -123.96, 7.74992, 56.0396
95, 0.00000, 2329.58, -123.796, 0, 0, 6.3837, -123.796, 6.3837, 56.2038
96, 0.00000, 2332.71, -123.738, 0, 0, 5.27556, -123.738, 5.27556, 56.2623
97, 0.00000, 2338.76, -123.615, 0, 0, 4.25062, -123.615, 4.25062, 56.385
98, 0.00000, 2339.1, -123.608, 0, 0, 3.88707, -123.608, 3.88707, 56.3922
99, 0.00000, 2338.21, -123.627, 0, 0, 3.81125, -123.626, 3.81125, 56.374
100, 0.00000, 2338.02, -123.631, 0, 0, 3.78469, -123.631, 3.78469, 56.3693
101, 0.00000, 2332.05, -123.752, 0, 0, 4.25793, -123.747, 4.25793, 56.2528
102, 0.00000, 2329.53, -123.802, 0, 0, 5.24951, -123.8, 5.24951, 56.1999
103, 0.00000, 2312.45, -124.142, 0, 0, 6.4349, -124.142, 6.4349, 55.8578
104, 0.00000, 2322.55, -123.927, 0, 0, 5.82586, -123.932, 5.82586, 56.0684
105, 0.00000, 2316.15, -124.048, 0, 0, 5.16898, -124.048, 5.16898, 55.9517
106, 0.00000, 2319.16, -123.99, 0, 0, 4.56836, -123.99, 4.56836, 56.0099
107, 0.00000, 2320.26, -123.973, 0, 0, 3.91529, -123.973, 3.91529, 56.0265
108, 0.00000, 2319.78, -123.984, 0, 0, 3.93737, -123.984, 3.93737, 56.0159
109, 0.00000, 2320.62, -123.968, 0, 0, 3.90359, -123.968, 3.90359, 56.0316
110, 0.00000, 2322.12, -123.938, 0, 0, 3.80437, -123.939, 3.80437, 56.0612
111, 0.00000, 2321.87, -123.943, 0, 0, 3.77156, -123.943, 3.77156, 56.0571
112, 0.00000, 2320.89, -123.962, 0, 0, 4.06602, -123.962, 4.06602, 56.038
113, 0.00000, 2319.48, -123.989, 0, 0, 5.69397, -123.989, 5.69397, 56.0114
114, 0.00000, 2313.5, -124.113, 0, 0, 7.98892, -124.111, 7.98892, 55.889
115, 0.00000, 2309.97, -124.188, 0, 0, 9.2325, -124.188, 9.2325, 55.8122
116, 0.00000, 2311.39, -124.159, 0, 0, 9.01191, -124.159, 9.01191, 55.8414
117, 0.00000, 2317.29, -124.04, 0, 0, 8.89773, -124.04, 8.89773, 55.96
118, 0.00000, 2321.27, -123.96, 0, 0, 7.74992, -123.96, 7.74992, 56.0396
119, 0.00000, 2329.58, -123.796, 0, 0, 6.3837, -123.796, 6.3837, 56.2038
120, 0.00000, 2332.71, -123.738, 0, 0, 5.27556, -123.738, 5.27556, 56.2623
121, 0.00000, 2338.76, -123.615, 0, 0, 4.25062, -123.615, 4.25062, 56.385
122, 0.00000, 2339.1, -123.608, 0, 0, 3.88707, -123.608, 3.88707, 56.3922
123, 0.00000, 2338.21, -123.627, 0, 0, 3.81125, -123.626, 3.81125, 56.374
124, 0.00000, 2338.02, -123.631, 0, 0, 3.78469, -123.631, 3.78469, 56.3693
125, 0.00000, 2332.05, -123.752, 0, 0, 4.25793, -123.747, 4.25793, 56.2528
126, 0.00000, 2329.53, -123.802, 0, 0, 5.24951, -123.8, 5.24951, 56.1999
127, 0.00000, 2312.45, -124.142, 0, 0, 6.4349, -124.142, 6.4349, 55.8578
128, 0.00000, 2322.55, -123.927, 0, 0, 5.82586, -123.932, 5.82586, 56.0684
129, 0.00000, 2316.15, -124.048, 0, 0, 5.16898, -124.048, 5.16898, 55.9517
130, 0.00000, 2319.16, -123.99, 0, 0, 4.56836, -123.99, 4.56836, 56.0099
131, 0.00000, 2320.26, -123.973, 0, 0, 3.91529, -123.973, 3.91529, 56.0265
132, 0.00000, 2319.78, -123.984, 0, 0, 3.93737, -123.984, 3.93737, 56.0159
133, 0.00000, 2320.62, -123.968, 0, 0, 3.90359, -123.968, 3.90359, 56.0316
134, 0.00000, 2322.12, -123.938, 0, 0, 3.80437, -123.939, 3.80437, 56.0612
135, 0.00000, 2321.87, -123.943, 0, 0, 3.77156, -123.943, 3.77156, 56.0571
136, 0.00000, 2320.89, -123.962, 0, 0, 4.06602, -123.962, 4.06602, 56.038
137, 0.00000, 2319.48, -123.989, 0, 0, 5.69397, -123.989, 5.69397, 56.0114
138, 0.00000, 2313.5, -124.113, 0, 0, 7.98892, -124.111, 7.98892, 55.889
139, 0.00000, 2309.97, -124.188, 0, 0, 9.2325, -124.188, 9.2325, 55.8122
140, 0.00000, 2311.39, -124.159, 0, 0, 9.01191, -124.159, 9.01191, 55.8414
141, 0.00000, 2317.29, -124.04, 0, 0, 8.89773, -124.04, 8.89773, 55.96
142, 0.00000, 2321.27, -123.96, 0, 0, 7.74992, -123.96, 7.74992, 56.0396
143, 0.00000, 2329.58, -123.796, 0, 0, 6.3837, -123.796, 6.3837, 56.2038
144, 0.00000, 2332.71, -123.738, 0, 0, 5.27556, -123.738, 5.27556, 56.2623
145, 0.00000, 2338.76, -123.615, 0, 0, 4.25062, -123.615, 4.25062, 56.385
146, 0.00000, 2339.1, -123.608, 0, 0, 3.88707, -123.608, 3.88707, 56.3922
147, 0.00000, 2338.21, -123.627, 0, 0, 3.81125, -123.626, 3.81125, 56.374
148, 0.00000, 2338.02, -123.631, 0, 0, 3.78469, -123.631, 3.78469, 56.3693
149, 0.00000, 2332.05, -123.752, 0, 0, 4.25793, -123.747, 4.25793, 56.2528
150, 0.00000, 2329.53, -123.802, 0, 0, 5.24951, -123.8, 5.24951, 56.1999
151, 0.00000, 2312.45, -124.142, 0, 0, 6.4349, -124.142, 6.4349, 55.8578
152, 0.00000, 2322.55, -123.927, 0, 0, 5.82586, -123.932, 5.82586, 56.0684
153, 0.00000, 2316.15, -124.048, 0, 0, 5.16898, -124.048, 5.16898, 55.9517
154, 0.00000, 2319.16, -123.99, 0, 0, 4.56836, -123.99, 4.56836, 56.0099
155, 0.00000, 2320.26, -123.973, 0, 0, 3.91529, -123.973, 3.91529, 56.0265
156, 0.00000, 2319.78, -123.984, 0, 0, 3.93737, -123.984, 3.93737, 56.0159
157, 0.00000, 2320.62, -123.968, 0, 0, 3.90359, -123.968, 3.90359, 56.0316
158, 0.00000, 2322.12, -123.938, 0, 0, 3.80437, -123.939, 3.80437, 56.0612
159, 0.00000, 2321.87, -123.943, 0, 0, 3.77156, -123.943, 3.77156, 56.0571
160, 0.00000, 2320.89, -123.962, 0, 0, 4.06602, -123.962, 4.06602, 56.038
161, 0.00000, 2319.48, -123.989, 0, 0, 5.69397, -123.989, 5.69397, 56.0114
162, 0.00000, 2313.5, -124.113, 0, 0, 7.98892, -124.111, 7.98892, 55.889
163, 0.00000, 2309.97, -124.188, 0, 0, 9.2325, -124.188, 9.2325, 55.8122
164, 0.00000, 2311.39, -124.159, 0, 0, 9.01191, -124.159, 9.01191, 55.8414
165, 0.00000, 2317.29, -124.04, 0, 0, 8.89773, -124.04, 8.89773, 55.96
166, 0.00000, 2321.27, -123.96, 0, 0, 7.74992, -123.96, 7.74992, 56.0396
167, 0.00000, 2329.58, -123.796, 0, 0, 6.3837, -123.796, 6.3837, 56.2038
168, 0.00000, 2332.71, -123.738, 0, 0, 5.27556, -123.738, 5.27556, 56.2623
169, 0.00000, 2338.76, -123.615, 0, 0, 4.25062, -123.615, 4.25062, 56.385
170, 0.00000, 2339.1, -123.608, 0, 0, 3.88707, -123.608, 3.88707, 56.3922
171, 0.00000, 2338.21, -123.627, 0, 0, 3.81125, -123.626, 3.81125, 56.374
172, 0.00000, 2338.02, -123.631, 0, 0, 3.78469, -123.631, 3.78469, 56.3693
173, 0.00000, 2332.05, -123.752, 0, 0, 4.25793, -123.747, 4.25793, 56.2528
174, 0.00000, 2329.53, -123.802, 0, 0, 5.24951, -123.8, 5.24951, 56.1999
175, 0.00000, 2312.45, -124.142, 0, 0, 6.4349, -124.142, 6.4349, 55.8578
176, 0.00000, 2322.55, -123.927, 0, 0, 5.82586, -123.932, 5.82586, 56.0684
177, 0.00000, 2316.15, -124.048, 0, 0, 5.16898, -124.048, 5.16898, 55.9517
178, 0.00000, 2319.16, -123.99, 0, 0, 4.56836, -123.99, 4.56836, 56.0099
179, 0.00000, 2320.26, -123.973, 0, 0, 3.91529, -123.973, 3.91529, 56.0265
180, 0.00000, 2319.78, -123.984, 0, 0, 3.93737, -123.984, 3.93737, 56.0159
181, 0.00000, 2320.62, -123.968, 0, 0, 3.90359, -123.968, 3.90359, 56.0316
182, 0.00000, 2322.12, -123.938, 0, 0, 3.80437, -123.939, 3.80437, 56.0612
183, 0.00000, 2321.87, -123.943, 0, 0, 3.77156, -123.943, 3.77156, 56.0571
184, 0.00000, 2320.89, -123.962, 0, 0, 4.06602, -123.962, 4.06602, 56.038
185, 0.00000, 2319.48, -123.989, 0, 0, 5.69397, -123.989, 5.69397, 56.0114
186, 0.00000, 2313.5, -124.113, 0, 0, 7.98892, -124.111, 7.98892, 55.889
187, 0.00000, 2309.97, -124.188, 0, 0, 9.2325, -124.188, 9.2325, 55.8122
188, 0.00000, 2311.39, -124.159, 0, 0, 9.01191, -124.159, 9.01191, 55.8414
189, 0.00000, 2317.29, -124.04, 0, 0, 8.89773, -124.04, 8.89773, 55.96
190, 0.00000, 2321.27, -123.96, 0, 0, 7.74992, -123.96, 7.74992, 56.0396
191, 0.00000, 2329.58, -123.796, 0, 0, 6.3837, -123.796, 6.3837, 56.2038
192, 0.00000, 2332.71, -123.738, 0, 0, 5.27556, -123.738, 5.27556, 56.2623
193, 0.00000, 2338.76, -123.615, 0, 0, 4.25062, -123.615, 4.25062, 56.385
194, 0.00000, 2339.1, -123.608, 0, 0, 3.88707, -123.608, 3.88707, 56.3922
195, 0.00000, 2338.21, -123.627, 0, 0, 3.81125, -123.626, 3.81125, 56.374
196, 0.00000, 2338.02, -123.631, 0, 0, 3.78469, -123.631, 3.78469, 56.3693
197, 0.00000, 2332.05, -123.752, 0, 0, 4.25793, -123.747, 4.25793, 56.2528
198, 0.00000, 2329.53, -123.802, 0, 0, 5.24951, -123.8, 5.24951, 56.1999
199, 0.00000, 2312.45, -124.142, 0, 0, 6.4349, -124.142, 6.4349, 55.8578
200, 0.00000, 2322.55, -123.927, 0, 0, 5.82586, -123.932, 5.82586, 56.0684
201, 0.00000, 2316.15, -124.048, 0, 0, 5.16898, -124.048, 5.16898, 55.9517
202, 0.00000, 2319.16, -123.99, 0, 0, 4.56836, -123.99, 4.56836, 56.0099
203, 0.00000, 2320.26, -123.973, 0, 0, 3.91529, -123.973, 3.91529, 56.0265
204, 0.00000, 2319.78, -123.984, 0, 0, 3.93737, -123.984, 3.93737, 56.0159
205, 0.00000, 2320.62, -123.968, 0, 0, 3.90359, -123.968, 3.90359, 56.0316
206, 0.00000, 2322.12, -123.938, 0, 0, 3.80437, -123.939, 3.80437, 56.0612
207, 0.00000, 2321.87, -123.943, 0, 0, 3.77156, -123.943, 3.77156, 56.0571
208, 0.00000, 2320.89, -123.962, 0, 0, 4.06602, -123.962, 4.06602, 56.038
209, 0.00000, 2319.48, -123.989, 0, 0, 5.69397, -123.989, 5.69397, 56.0114
210, 0.00000, 2313.5, -124.113, 0, 0, 7.98892, -124.111, 7.98892, 55.889
211, 0.00000, 2309.97, -124.188, 0, 0, 9.2325, -124.188, 9.2325, 55.8122
212, 0.00000, 2311.39, -124.159, 0, 0, 9.01191, -124.159, 9.01191, 55.8414
213, 0.00000, 2317.29, -124.04, 0, 0, 8.89773, -124.04, 8.89773, 55.96
214, 0.00000, 2321.27, -123.96, 0, 0, 7.74992, -123.96, 7.74992, 56.0396
215, 0.00000, 2329.58, -123.796, 0, 0, 6.3837, -123.796, 6.3837, 56.2038
216, 0.00000, 2332.71, -123.738, 0, 0, 5.27556, -123.738, 5.27556, 56.2623
217, 0.00000, 2338.76, -123.615, 0, 0, 4.25062, -123.615, 4.25062, 56.385
218, 0.00000, 2339.1, -123.608, 0, 0, 3.88707, -123.608, 3.88707, 56.3922
219, 0.00000, 2338.21, -123.627, 0, 0, 3.81125, -123.626, 3.81125, 56.374
220, 0.00000, 2338.02, -123.631, 0, 0, 3.78469, -123.631, 3.78469, 56.3693
221, 0.00000, 2332.05, -123.752, 0, 0, 4.25793, -123.747, 4.25793, 56.2528
222, 0.00000, 2329.53, -123.802, 0, 0, 5.24951, -123.8, 5.24951, 56.1999
223, 0.00000, 2312.45, -124.142, 0, 0, 6.4349, -124.142, 6.4349, 55.8578
224, 0.00000, 2322.55, -123.927, 0, 0, 5.82586, -123.932, 5.82586, 56.0684
225, 0.00000, 2316.15, -124.048, 0, 0, 5.16898, -124.048, 5.16898, 55.9517
226, 0.00000, 2319.16, -123.99, 0, 0, 4.56836, -123.99, 4.56836, 56.0099
227, 0.00000, 2320.26, -123.973, 0, 0, 3.91529, -123.973, 3.91529, 56.0265
228, 0.00000, 2319.78, -123.984, 0, 0, 3.93737, -123.984, 3.93737, 56.0159
229, 0.00000, 2320.62, -123.968, 0, 0, 3.90359, -123.968, 3.90359, 56.0316
230, 0.00000, 2322.12, -123.938, 0, 0, 3.80437, -123.939, 3.80437, 56.0612
231, 0.00000, 2321.87, -123.943, 0, 0, 3.77156, -123.943, 3.77156, 56.0571
232, 0.00000, 2320.89, -123.962, 0, 0, 4.06602, -123.962, 4.06602, 56.038
233, 0.00000, 2319.48, -123.989, 0, 0, 5.69397, -123.989, 5.69397, 56.0114
234, 0.00000, 2313.5, -124.113, 0, 0, 7.98892, -124.111, 7.98892, 55.889
235, 0.00000, 2309.97, -124.188, 0, 0, 9.2325, -124.188, 9.2325, 55.8122
236, 0.00000, 2311.39, -124.159, 0, 0, 9.01191, -124.159, 9.01191, 55.8414
237, 0.00000, 2317.29, -124.04, 0, 0, 8.89773, -124.04, 8.89773, 55.96
238, 0.00000, 2321.27, -123.96, 0, 0, 7.74992, -123.96, 7.74992, 56.0396
239, 0.00000, 2329.58, -123.796, 0, 0, 6.3837, -123.796, 6.3837, 56.2038
240, 0.00000, 2332.71, -123.738, 0, 0, 5.27556, -123.738, 5.27556, 56.2623
241, 0.00000, 2338.76, -123.615, 0, 0, 4.25062, -123.615, 4.25062, 56.385
242, 0.00000, 2339.1, -123.608, 0, 0, 3.88707, -123.608, 3.88707, 56.3922
243, 0.00000, 2338.21, -123.627, 0, 0, 3.81125, -123.626, 3.81125, 56.374
244, 0.00000, 2338.02, -123.631, 0, 0, 3.78469, -123.631, 3.78469, 56.3693
245, 0.00000, 2332.05, -123.752, 0, 0, 4.25793, -123.747, 4.25793, 56.2528
246, 0.00000, 2329.53, -123.802, 0, 0, 5.24951, -123.8, 5.24951, 56.1999
247, 0.00000, 2312.45, -124.142, 0, 0, 6.4349, -124.142, 6.4349, 55.8578
248, 0.00000, 2322.55, -123.927, 0, 0, 5.82586, -123.932, 5.82586, 56.0684
249, 0.00000, 2316.15, -124.048, 0, 0, 5.16898, -124.048, 5.16898, 55.9517
250, 0.00000, 2319.16, -123.99, 0, 0, 4.56836, -123.99, 4.56836, 56.0099
251, 0.00000, 2320.26, -123.973, 0, 0, 3.91529, -123.973, 3.91529, 56.0265
252, 0.00000, 2319.78, -123.984, 0, 0, 3.93737, -123.984, 3.93737, 56.0159
253, 0.00000, 2320.62, -123.968, 0, 0, 3.90359, -123.968, 3.90359, 56.0316
254, 0.00000, 2322.12, -123.938, 0, 0, 3.80437, -123.939, 3.80437, 56.0612
255, 0.00000, 2321.87, -123.943, 0, 0, 3.77156, -123.943, 3.77156, 56.0571
256, 0.00000, 2320.89, -123.962, 0, 0, 4.06602, -123.962, 4.06602, 56.038
257, 0.00000, 2319.48, -123.989, 0, 0, 5.69397, -123.989, 5.69397, 56.0114
258, 0.00000, 2313.5, -124.113, 0, 0, 7.98892, -124.111, 7.98892, 55.889
259, 0.00000, 2309.97, -124.188, 0, 0, 9.2325, -124.188, 9.2325, 55.8122
260, 0.00000, 2311.39, -124.159, 0, 0, 9.01191, -124.159, 9.01191, 55.8414
261, 0.00000, 2317.29, -124.04, 0, 0, 8.89773, -124.04, 8.89773, 55.96
262, 0.00000, 2321.27, -123.96, 0, 0, 7.74992, -123.96, 7.74992, 56.0396
263, 0.00000, 2329.58, -123.796, 0, 0, 6.3837, -123.796, 6.3837, 56.2038
264, 0.00000, 2332.71, -123.738, 0, 0, 5.27556, -123.738, 5.27556, 56.2623
265, 0.00000, 2338.76, -123.615, 0, 0, 4.25062, -123.615, 4.25062, 56.385
266, 0.00000, 2339.1, -123.608, 0, 0, 3.88707, -123.608, 3.88707, 56.3922
267, 0.00000, 2338.21, -123.627, 0, 0, 3.81125, -123.626, 3.81125, 56.374
268, 0.00000, 2338.02, -123.631, 0, 0, 3.78469, -123.631, 3.78469, 56.3693
269, 0.00000, 2332.05, -123.752, 0, 0, 4.25793, -123.747, 4.25793, 56.2528
270, 0.00000, 2329.53, -123.802, 0, 0, 5.24951, -123.8, 5.24951, 56.1999
