hour, t(sec), V1, VAngle1, V2, VAngle2, V3, VAngle3, I1, IAngle1, I2, IAngle2, I3, IAngle3
1, 0.00000, 66395.3, 30, 66395.3, -90, 66395.3, 150, 9.00672, -135.586, 9.03414, 110.054, 9.77825, -12.9013
2, 0.00000, 66395.3, 30, 66395.3, -90, 66395.3, 150, 9.01461, -135.78, 9.02198, 110.13, 9.8115, -12.8611
3, 0.00000, 66395.3, 30, 66395.3, -90, 66395.3, 150, 9.07806, -135.994, 9.01335, 109.945, 9.84538, -12.7084
4, 0.00000, 66395.3, 30, 66395.3, -90, 66395.3, 150, 9.09316, -136.051, 9.01142, 109.905, 9.85494, -12.6742
5, 0.00000, 66395.3, 30, 66395.3, -90, 66395.3, 150, 9.48401, -137.191, 9.39171, 108.691, 10.2644, -13.8173
6, 0.00000, 66395.3, 30, 66395.3, -90, 66395.3, 150, 9.62367, -137.465, 9.62873, 108.215, 10.4405, -14.6486
7, 0.00000, 66395.3, 30, 66395.3, -90, 66395.3, 150, 10.812, -140.638, 10.9071, 105.299, 11.8193, -18.0559
8, 0.00000, 66395.3, 30, 66395.3, -90, 66395.3, 150, 10.2599, -140.5, 10.4544, 107.26, 11.5485, -17.4212
9, 0.00000, 66395.3, 30, 66395.3, -90, 66395.3, 150, 10.7976, -142.232, 11.0639, 106.239, 12.3011, -19.0222
10, 0.00000, 66395.3, 30, 66395.3, -90, 66395.3, 150, 10.5302, -141.423, 10.7253, 106.731, 11.9106, -18.1235
11, 0.00000, 66395.3, 30, 66395.3, -90, 66395.3, 150, 10.6718, -142.487, 10.4056, 106.881, 11.996, -16.7574
12, 0.00000, 66395.3, 30, 66395.3, -90, 66395.3, 150, 10.8046, -143.115, 10.4039, 106.788, 12.1544, -16.6151
13, 0.00000, 66395.3, 30, 66395.3, -90, 66395.3, 150, 10.8652, -143.653, 10.3547, 106.921, 12.2652, -16.4189
14, 0.00000, 66395.3, 30, 66395.3, -90, 66395.3, 150, 10.7752, -143.519, 10.2618, 107.181, 12.1786, -16.1988
15, 0.00000, 66395.3, 30, 66395.3, -90, 66395.3, 150, 10.7655, -143.404, 10.2724, 107.139, 12.155, -16.2345
16, 0.00000, 66395.3, 30, 66395.3, -90, 66395.3, 150, 10.8057, -143.388, 10.3436, 106.973, 12.1911, -16.4321
17, 0.00000, 66395.3, 30, 66395.3, -90, 66395.3, 150, 10.8672, -143.389, 10.5447, 106.756, 12.3064, -17.0874
18, 0.00000, 66395.3, 30, 66395.3, -90, 66395.3, 150, 11.0385, -142.543, 11.0544, 105.653, 12.3855, -18.5056
19, 0.00000, 66395.3, 30, 66395.3, -90, 66395.3, 150, 11.2086, -142.293, 11.492, 104.981, 12.5767, -19.7309
20, 0.00000, 66395.3, 30, 66395.3, -90, 66395.3, 150, 11.0589, -141.8, 11.4374, 105.2, 12.4206, -19.7558
21, 0.00000, 66395.3, 30, 66395.3, -90, 66395.3, 150, 10.6326, -140.767, 11.1351, 106.12, 12.0039, -19.3253
22, 0.00000, 66395.3, 30, 66395.3, -90, 66395.3, 150, 10.2935, -139.706, 10.8043, 106.765, 11.5712, -18.5871
23, 0.00000, 66395.3, 30, 66395.3, -90, 66395.3, 150, 9.52895, -136.786, 10.0071, 108.22, 10.5053, -16.4833
24, 0.00000, 66395.3, 30, 66395.3, -90, 66395.3, 150, 9.47352, -137.249, 9.49752, 108.799, 10.3391, -14.3365
25, 0.00000, 66395.3, 30, 66395.3, -90, 66395.3, 150, 9.0066, -135.586, 9.03405, 110.054, 9.77808, -12.9014
26, 0.00000, 66395.3, 30, 66395.3, -90, 66395.3, 150, 9.01461, -135.78, 9.02198, 110.13, 9.8115, -12.8611
27, 0.00000, 66395.3, 30, 66395.3, -90, 66395.3, 150, 9.07806, -135.994, 9.01335, 109.945, 9.84538, -12.7084
28, 0.00000, 66395.3, 30, 66395.3, -90, 66395.3, 150, 9.09316, -136.051, 9.01142, 109.905, 9.85494, -12.6742
29, 0.00000, 66395.3, 30, 66395.3, -90, 66395.3, 150, 9.48401, -137.191, 9.39171, 108.691, 10.2644, -13.8173
30, 0.00000, 66395.3, 30, 66395.3, -90, 66395.3, 150, 9.62367, -137.465, 9.62873, 108.215, 10.4405, -14.6486
31, 0.00000, 66395.3, 30, 66395.3, -90, 66395.3, 150, 10.812, -140.638, 10.9071, 105.299, 11.8193, -18.0559
32, 0.00000, 66395.3, 30, 66395.3, -90, 66395.3, 150, 10.2599, -140.5, 10.4544, 107.26, 11.5485, -17.4212
33, 0.00000, 66395.3, 30, 66395.3, -90, 66395.3, 150, 10.7976, -142.232, 11.0639, 106.239, 12.3011, -19.0222
34, 0.00000, 66395.3, 30, 66395.3, -90, 66395.3, 150, 10.5302, -141.423, 10.7253, 106.731, 11.9106, -18.1235
35, 0.00000, 66395.3, 30, 66395.3, -90, 66395.3, 150, 10.6718, -142.487, 10.4056, 106.881, 11.996, -16.7574
36, 0.00000, 66395.3, 30, 66395.3, -90, 66395.3, 150, 10.8046, -143.115, 10.4039, 106.788, 12.1544, -16.6151
37, 0.00000, 66395.3, 30, 66395.3, -90, 66395.3, 150, 10.8652, -143.653, 10.3547, 106.921, 12.2652, -16.4189
38, 0.00000, 66395.3, 30, 66395.3, -90, 66395.3, 150, 10.7752, -143.519, 10.2618, 107.181, 12.1786, -16.1988
39, 0.00000, 66395.3, 30, 66395.3, -90, 66395.3, 150, 10.7655, -143.404, 10.2724, 107.139, 12.155, -16.2345
40, 0.00000, 66395.3, 30, 66395.3, -90, 66395.3, 150, 10.8057, -143.388, 10.3436, 106.973, 12.1911, -16.4321
41, 0.00000, 66395.3, 30, 66395.3, -90, 66395.3, 150, 10.8672, -143.389, 10.5447, 106.756, 12.3064, -17.0874
42, 0.00000, 66395.3, 30, 66395.3, -90, 66395.3, 150, 11.0385, -142.543, 11.0544, 105.653, 12.3855, -18.5056
43, 0.00000, 66395.3, 30, 66395.3, -90, 66395.3, 150, 11.2086, -142.293, 11.492, 104.981, 12.5767, -19.7309
44, 0.00000, 66395.3, 30, 66395.3, -90, 66395.3, 150, 11.0589, -141.8, 11.4374, 105.2, 12.4206, -19.7558
45, 0.00000, 66395.3, 30, 66395.3, -90, 66395.3, 150, 10.6326, -140.767, 11.1351, 106.12, 12.0039, -19.3253
46, 0.00000, 66395.3, 30, 66395.3, -90, 66395.3, 150, 10.2935, -139.706, 10.8043, 106.765, 11.5712, -18.5871
47, 0.00000, 66395.3, 30, 66395.3, -90, 66395.3, 150, 9.52895, -136.786, 10.0071, 108.22, 10.5053, -16.4833
48, 0.00000, 66395.3, 30, 66395.3, -90, 66395.3, 150, 9.47352, -137.249, 9.49752, 108.799, 10.3391, -14.3365
49, 0.00000, 66395.3, 30, 66395.3, -90, 66395.3, 150, 9.0066, -135.586, 9.03405, 110.054, 9.77808, -12.9014
50, 0.00000, 66395.3, 30, 66395.3, -90, 66395.3, 150, 9.01461, -135.78, 9.02198, 110.13, 9.8115, -12.8611
51, 0.00000, 66395.3, 30, 66395.3, -90, 66395.3, 150, 9.07806, -135.994, 9.01335, 109.945, 9.84538, -12.7084
52, 0.00000, 66395.3, 30, 66395.3, -90, 66395.3, 150, 9.09316, -136.051, 9.01142, 109.905, 9.85494, -12.6742
53, 0.00000, 66395.3, 30, 66395.3, -90, 66395.3, 150, 9.48401, -137.191, 9.39171, 108.691, 10.2644, -13.8173
54, 0.00000, 66395.3, 30, 66395.3, -90, 66395.3, 150, 9.62367, -137.465, 9.62873, 108.215, 10.4405, -14.6486
55, 0.00000, 66395.3, 30, 66395.3, -90, 66395.3, 150, 10.812, -140.638, 10.9071, 105.299, 11.8193, -18.0559
56, 0.00000, 66395.3, 30, 66395.3, -90, 66395.3, 150, 10.2599, -140.5, 10.4544, 107.26, 11.5485, -17.4212
57, 0.00000, 66395.3, 30, 66395.3, -90, 66395.3, 150, 10.7976, -142.232, 11.0639, 106.239, 12.3011, -19.0222
58, 0.00000, 66395.3, 30, 66395.3, -90, 66395.3, 150, 10.5302, -141.423, 10.7253, 106.731, 11.9106, -18.1235
59, 0.00000, 66395.3, 30, 66395.3, -90, 66395.3, 150, 10.6718, -142.487, 10.4056, 106.881, 11.996, -16.7574
60, 0.00000, 66395.3, 30, 66395.3, -90, 66395.3, 150, 10.8046, -143.115, 10.4039, 106.788, 12.1544, -16.6151
61, 0.00000, 66395.3, 30, 66395.3, -90, 66395.3, 150, 10.8652, -143.653, 10.3547, 106.921, 12.2652, -16.4189
62, 0.00000, 66395.3, 30, 66395.3, -90, 66395.3, 150, 10.7752, -143.519, 10.2618, 107.181, 12.1786, -16.1988
63, 0.00000, 66395.3, 30, 66395.3, -90, 66395.3, 150, 10.7655, -143.404, 10.2724, 107.139, 12.155, -16.2345
64, 0.00000, 66395.3, 30, 66395.3, -90, 66395.3, 150, 10.8057, -143.388, 10.3436, 106.973, 12.1911, -16.4321
65, 0.00000, 66395.3, 30, 66395.3, -90, 66395.3, 150, 10.8672, -143.389, 10.5447, 106.756, 12.3064, -17.0874
66, 0.00000, 66395.3, 30, 66395.3, -90, 66395.3, 150, 11.0385, -142.543, 11.0544, 105.653, 12.3855, -18.5056
67, 0.00000, 66395.3, 30, 66395.3, -90, 66395.3, 150, 11.2086, -142.293, 11.492, 104.981, 12.5767, -19.7309
68, 0.00000, 66395.3, 30, 66395.3, -90, 66395.3, 150, 11.0589, -141.8, 11.4374, 105.2, 12.4206, -19.7558
69, 0.00000, 66395.3, 30, 66395.3, -90, 66395.3, 150, 10.6326, -140.767, 11.1351, 106.12, 12.0039, -19.3253
70, 0.00000, 66395.3, 30, 66395.3, -90, 66395.3, 150, 10.2935, -139.706, 10.8043, 106.765, 11.5712, -18.5871
71, 0.00000, 66395.3, 30, 66395.3, -90, 66395.3, 150, 9.52895, -136.786, 10.0071, 108.22, 10.5053, -16.4833
72, 0.00000, 66395.3, 30, 66395.3, -90, 66395.3, 150, 9.47352, -137.249, 9.49752, 108.799, 10.3391, -14.3365
73, 0.00000, 66395.3, 30, 66395.3, -90, 66395.3, 150, 9.0066, -135.586, 9.03405, 110.054, 9.77808, -12.9014
74, 0.00000, 66395.3, 30, 66395.3, -90, 66395.3, 150, 9.01461, -135.78, 9.02198, 110.13, 9.8115, -12.8611
75, 0.00000, 66395.3, 30, 66395.3, -90, 66395.3, 150, 9.07806, -135.994, 9.01335, 109.945, 9.84538, -12.7084
76, 0.00000, 66395.3, 30, 66395.3, -90, 66395.3, 150, 9.09316, -136.051, 9.01142, 109.905, 9.85494, -12.6742
77, 0.00000, 66395.3, 30, 66395.3, -90, 66395.3, 150, 9.48401, -137.191, 9.39171, 108.691, 10.2644, -13.8173
78, 0.00000, 66395.3, 30, 66395.3, -90, 66395.3, 150, 9.62367, -137.465, 9.62873, 108.215, 10.4405, -14.6486
79, 0.00000, 66395.3, 30, 66395.3, -90, 66395.3, 150, 10.812, -140.638, 10.9071, 105.299, 11.8193, -18.0559
80, 0.00000, 66395.3, 30, 66395.3, -90, 66395.3, 150, 10.2599, -140.5, 10.4544, 107.26, 11.5485, -17.4212
81, 0.00000, 66395.3, 30, 66395.3, -90, 66395.3, 150, 10.7976, -142.232, 11.0639, 106.239, 12.3011, -19.0222
82, 0.00000, 66395.3, 30, 66395.3, -90, 66395.3, 150, 10.5302, -141.423, 10.7253, 106.731, 11.9106, -18.1235
83, 0.00000, 66395.3, 30, 66395.3, -90, 66395.3, 150, 10.6718, -142.487, 10.4056, 106.881, 11.996, -16.7574
84, 0.00000, 66395.3, 30, 66395.3, -90, 66395.3, 150, 10.8046, -143.115, 10.4039, 106.788, 12.1544, -16.6151
85, 0.00000, 66395.3, 30, 66395.3, -90, 66395.3, 150, 10.8652, -143.653, 10.3547, 106.921, 12.2652, -16.4189
86, 0.00000, 66395.3, 30, 66395.3, -90, 66395.3, 150, 10.7752, -143.519, 10.2618, 107.181, 12.1786, -16.1988
87, 0.00000, 66395.3, 30, 66395.3, -90, 66395.3, 150, 10.7655, -143.404, 10.2724, 107.139, 12.155, -16.2345
88, 0.00000, 66395.3, 30, 66395.3, -90, 66395.3, 150, 10.8057, -143.388, 10.3436, 106.973, 12.1911, -16.4321
89, 0.00000, 66395.3, 30, 66395.3, -90, 66395.3, 150, 10.8672, -143.389, 10.5447, 106.756, 12.3064, -17.0874
90, 0.00000, 66395.3, 30, 66395.3, -90, 66395.3, 150, 11.0385, -142.543, 11.0544, 105.653, 12.3855, -18.5056
91, 0.00000, 66395.3, 30, 66395.3, -90, 66395.3, 150, 11.2086, -142.293, 11.492, 104.981, 12.5767, -19.7309
92, 0.00000, 66395.3, 30, 66395.3, -90, 66395.3, 150, 11.0589, -141.8, 11.4374, 105.2, 12.4206, -19.7558
93, 0.00000, 66395.3, 30, 66395.3, -90, 66395.3, 150, 10.6326, -140.767, 11.1351, 106.12, 12.0039, -19.3253
94, 0.00000, 66395.3, 30, 66395.3, -90, 66395.3, 150, 10.2935, -139.706, 10.8043, 106.765, 11.5712, -18.5871
95, 0.00000, 66395.3, 30, 66395.3, -90, 66395.3, 150, 9.52895, -136.786, 10.0071, 108.22, 10.5053, -16.4833
96, 0.00000, 66395.3, 30, 66395.3, -90, 66395.3, 150, 9.47352, -137.249, 9.49752, 108.799, 10.3391, -14.3365
97, 0.00000, 66395.3, 30, 66395.3, -90, 66395.3, 150, 9.0066, -135.586, 9.03405, 110.054, 9.77808, -12.9014
98, 0.00000, 66395.3, 30, 66395.3, -90, 66395.3, 150, 9.01461, -135.78, 9.02198, 110.13, 9.8115, -12.8611
99, 0.00000, 66395.3, 30, 66395.3, -90, 66395.3, 150, 9.07806, -135.994, 9.01335, 109.945, 9.84538, -12.7084
100, 0.00000, 66395.3, 30, 66395.3, -90, 66395.3, 150, 9.09316, -136.051, 9.01142, 109.905, 9.85494, -12.6742
101, 0.00000, 66395.3, 30, 66395.3, -90, 66395.3, 150, 9.48401, -137.191, 9.39171, 108.691, 10.2644, -13.8173
102, 0.00000, 66395.3, 30, 66395.3, -90, 66395.3, 150, 9.62367, -137.465, 9.62873, 108.215, 10.4405, -14.6486
103, 0.00000, 66395.3, 30, 66395.3, -90, 66395.3, 150, 10.812, -140.638, 10.9071, 105.299, 11.8193, -18.0559
104, 0.00000, 66395.3, 30, 66395.3, -90, 66395.3, 150, 10.2599, -140.5, 10.4544, 107.26, 11.5485, -17.4212
105, 0.00000, 66395.3, 30, 66395.3, -90, 66395.3, 150, 10.7976, -142.232, 11.0639, 106.239, 12.3011, -19.0222
106, 0.00000, 66395.3, 30, 66395.3, -90, 66395.3, 150, 10.5302, -141.423, 10.7253, 106.731, 11.9106, -18.1235
107, 0.00000, 66395.3, 30, 66395.3, -90, 66395.3, 150, 10.6718, -142.487, 10.4056, 106.881, 11.996, -16.7574
108, 0.00000, 66395.3, 30, 66395.3, -90, 66395.3, 150, 10.8046, -143.115, 10.4039, 106.788, 12.1544, -16.6151
109, 0.00000, 66395.3, 30, 66395.3, -90, 66395.3, 150, 10.8652, -143.653, 10.3547, 106.921, 12.2652, -16.4189
110, 0.00000, 66395.3, 30, 66395.3, -90, 66395.3, 150, 10.7752, -143.519, 10.2618, 107.181, 12.1786, -16.1988
111, 0.00000, 66395.3, 30, 66395.3, -90, 66395.3, 150, 10.7655, -143.404, 10.2724, 107.139, 12.155, -16.2345
112, 0.00000, 66395.3, 30, 66395.3, -90, 66395.3, 150, 10.8057, -143.388, 10.3436, 106.973, 12.1911, -16.4321
113, 0.00000, 66395.3, 30, 66395.3, -90, 66395.3, 150, 10.8672, -143.389, 10.5447, 106.756, 12.3064, -17.0874
114, 0.00000, 66395.3, 30, 66395.3, -90, 66395.3, 150, 11.0385, -142.543, 11.0544, 105.653, 12.3855, -18.5056
115, 0.00000, 66395.3, 30, 66395.3, -90, 66395.3, 150, 11.2086, -142.293, 11.492, 104.981, 12.5767, -19.7309
116, 0.00000, 66395.3, 30, 66395.3, -90, 66395.3, 150, 11.0589, -141.8, 11.4374, 105.2, 12.4206, -19.7558
117, 0.00000, 66395.3, 30, 66395.3, -90, 66395.3, 150, 10.6326, -140.767, 11.1351, 106.12, 12.0039, -19.3253
118, 0.00000, 66395.3, 30, 66395.3, -90, 66395.3, 150, 10.2935, -139.706, 10.8043, 106.765, 11.5712, -18.5871
119, 0.00000, 66395.3, 30, 66395.3, -90, 66395.3, 150, 9.52895, -136.786, 10.0071, 108.22, 10.5053, -16.4833
120, 0.00000, 66395.3, 30, 66395.3, -90, 66395.3, 150, 9.47352, -137.249, 9.49752, 108.799, 10.3391, -14.3365
121, 0.00000, 66395.3, 30, 66395.3, -90, 66395.3, 150, 9.0066, -135.586, 9.03405, 110.054, 9.77808, -12.9014
122, 0.00000, 66395.3, 30, 66395.3, -90, 66395.3, 150, 9.01461, -135.78, 9.02198, 110.13, 9.8115, -12.8611
123, 0.00000, 66395.3, 30, 66395.3, -90, 66395.3, 150, 9.07806, -135.994, 9.01335, 109.945, 9.84538, -12.7084
124, 0.00000, 66395.3, 30, 66395.3, -90, 66395.3, 150, 9.09316, -136.051, 9.01142, 109.905, 9.85494, -12.6742
125, 0.00000, 66395.3, 30, 66395.3, -90, 66395.3, 150, 9.48401, -137.191, 9.39171, 108.691, 10.2644, -13.8173
126, 0.00000, 66395.3, 30, 66395.3, -90, 66395.3, 150, 9.62367, -137.465, 9.62873, 108.215, 10.4405, -14.6486
127, 0.00000, 66395.3, 30, 66395.3, -90, 66395.3, 150, 10.812, -140.638, 10.9071, 105.299, 11.8193, -18.0559
128, 0.00000, 66395.3, 30, 66395.3, -90, 66395.3, 150, 10.2599, -140.5, 10.4544, 107.26, 11.5485, -17.4212
129, 0.00000, 66395.3, 30, 66395.3, -90, 66395.3, 150, 10.7976, -142.232, 11.0639, 106.239, 12.3011, -19.0222
130, 0.00000, 66395.3, 30, 66395.3, -90, 66395.3, 150, 10.5302, -141.423, 10.7253, 106.731, 11.9106, -18.1235
131, 0.00000, 66395.3, 30, 66395.3, -90, 66395.3, 150, 10.6718, -142.487, 10.4056, 106.881, 11.996, -16.7574
132, 0.00000, 66395.3, 30, 66395.3, -90, 66395.3, 150, 10.8046, -143.115, 10.4039, 106.788, 12.1544, -16.6151
133, 0.00000, 66395.3, 30, 66395.3, -90, 66395.3, 150, 10.8652, -143.653, 10.3547, 106.921, 12.2652, -16.4189
134, 0.00000, 66395.3, 30, 66395.3, -90, 66395.3, 150, 10.7752, -143.519, 10.2618, 107.181, 12.1786, -16.1988
135, 0.00000, 66395.3, 30, 66395.3, -90, 66395.3, 150, 10.7655, -143.404, 10.2724, 107.139, 12.155, -16.2345
136, 0.00000, 66395.3, 30, 66395.3, -90, 66395.3, 150, 10.8057, -143.388, 10.3436, 106.973, 12.1911, -16.4321
137, 0.00000, 66395.3, 30, 66395.3, -90, 66395.3, 150, 10.8672, -143.389, 10.5447, 106.756, 12.3064, -17.0874
138, 0.00000, 66395.3, 30, 66395.3, -90, 66395.3, 150, 11.0385, -142.543, 11.0544, 105.653, 12.3855, -18.5056
139, 0.00000, 66395.3, 30, 66395.3, -90, 66395.3, 150, 11.2086, -142.293, 11.492, 104.981, 12.5767, -19.7309
140, 0.00000, 66395.3, 30, 66395.3, -90, 66395.3, 150, 11.0589, -141.8, 11.4374, 105.2, 12.4206, -19.7558
141, 0.00000, 66395.3, 30, 66395.3, -90, 66395.3, 150, 10.6326, -140.767, 11.1351, 106.12, 12.0039, -19.3253
142, 0.00000, 66395.3, 30, 66395.3, -90, 66395.3, 150, 10.2935, -139.706, 10.8043, 106.765, 11.5712, -18.5871
143, 0.00000, 66395.3, 30, 66395.3, -90, 66395.3, 150, 9.52895, -136.786, 10.0071, 108.22, 10.5053, -16.4833
144, 0.00000, 66395.3, 30, 66395.3, -90, 66395.3, 150, 9.47352, -137.249, 9.49752, 108.799, 10.3391, -14.3365
145, 0.00000, 66395.3, 30, 66395.3, -90, 66395.3, 150, 9.0066, -135.586, 9.03405, 110.054, 9.77808, -12.9014
146, 0.00000, 66395.3, 30, 66395.3, -90, 66395.3, 150, 9.01461, -135.78, 9.02198, 110.13, 9.8115, -12.8611
147, 0.00000, 66395.3, 30, 66395.3, -90, 66395.3, 150, 9.07806, -135.994, 9.01335, 109.945, 9.84538, -12.7084
148, 0.00000, 66395.3, 30, 66395.3, -90, 66395.3, 150, 9.09316, -136.051, 9.01142, 109.905, 9.85494, -12.6742
149, 0.00000, 66395.3, 30, 66395.3, -90, 66395.3, 150, 9.48401, -137.191, 9.39171, 108.691, 10.2644, -13.8173
150, 0.00000, 66395.3, 30, 66395.3, -90, 66395.3, 150, 9.62367, -137.465, 9.62873, 108.215, 10.4405, -14.6486
151, 0.00000, 66395.3, 30, 66395.3, -90, 66395.3, 150, 10.812, -140.638, 10.9071, 105.299, 11.8193, -18.0559
152, 0.00000, 66395.3, 30, 66395.3, -90, 66395.3, 150, 10.2599, -140.5, 10.4544, 107.26, 11.5485, -17.4212
153, 0.00000, 66395.3, 30, 66395.3, -90, 66395.3, 150, 10.7976, -142.232, 11.0639, 106.239, 12.3011, -19.0222
154, 0.00000, 66395.3, 30, 66395.3, -90, 66395.3, 150, 10.5302, -141.423, 10.7253, 106.731, 11.9106, -18.1235
155, 0.00000, 66395.3, 30, 66395.3, -90, 66395.3, 150, 10.6718, -142.487, 10.4056, 106.881, 11.996, -16.7574
156, 0.00000, 66395.3, 30, 66395.3, -90, 66395.3, 150, 10.8046, -143.115, 10.4039, 106.788, 12.1544, -16.6151
157, 0.00000, 66395.3, 30, 66395.3, -90, 66395.3, 150, 10.8652, -143.653, 10.3547, 106.921, 12.2652, -16.4189
158, 0.00000, 66395.3, 30, 66395.3, -90, 66395.3, 150, 10.7752, -143.519, 10.2618, 107.181, 12.1786, -16.1988
159, 0.00000, 66395.3, 30, 66395.3, -90, 66395.3, 150, 10.7655, -143.404, 10.2724, 107.139, 12.155, -16.2345
160, 0.00000, 66395.3, 30, 66395.3, -90, 66395.3, 150, 10.8057, -143.388, 10.3436, 106.973, 12.1911, -16.4321
161, 0.00000, 66395.3, 30, 66395.3, -90, 66395.3, 150, 10.8672, -143.389, 10.5447, 106.756, 12.3064, -17.0874
162, 0.00000, 66395.3, 30, 66395.3, -90, 66395.3, 150, 11.0385, -142.543, 11.0544, 105.653, 12.3855, -18.5056
163, 0.00000, 66395.3, 30, 66395.3, -90, 66395.3, 150, 11.2086, -142.293, 11.492, 104.981, 12.5767, -19.7309
164, 0.00000, 66395.3, 30, 66395.3, -90, 66395.3, 150, 11.0589, -141.8, 11.4374, 105.2, 12.4206, -19.7558
165, 0.00000, 66395.3, 30, 66395.3, -90, 66395.3, 150, 10.6326, -140.767, 11.1351, 106.12, 12.0039, -19.3253
166, 0.00000, 66395.3, 30, 66395.3, -90, 66395.3, 150, 10.2935, -139.706, 10.8043, 106.765, 11.5712, -18.5871
167, 0.00000, 66395.3, 30, 66395.3, -90, 66395.3, 150, 9.52895, -136.786, 10.0071, 108.22, 10.5053, -16.4833
168, 0.00000, 66395.3, 30, 66395.3, -90, 66395.3, 150, 9.47352, -137.249, 9.49752, 108.799, 10.3391, -14.3365
169, 0.00000, 66395.3, 30, 66395.3, -90, 66395.3, 150, 9.0066, -135.586, 9.03405, 110.054, 9.77808, -12.9014
170, 0.00000, 66395.3, 30, 66395.3, -90, 66395.3, 150, 9.01461, -135.78, 9.02198, 110.13, 9.8115, -12.8611
171, 0.00000, 66395.3, 30, 66395.3, -90, 66395.3, 150, 9.07806, -135.994, 9.01335, 109.945, 9.84538, -12.7084
172, 0.00000, 66395.3, 30, 66395.3, -90, 66395.3, 150, 9.09316, -136.051, 9.01142, 109.905, 9.85494, -12.6742
173, 0.00000, 66395.3, 30, 66395.3, -90, 66395.3, 150, 9.48401, -137.191, 9.39171, 108.691, 10.2644, -13.8173
174, 0.00000, 66395.3, 30, 66395.3, -90, 66395.3, 150, 9.62367, -137.465, 9.62873, 108.215, 10.4405, -14.6486
175, 0.00000, 66395.3, 30, 66395.3, -90, 66395.3, 150, 10.812, -140.638, 10.9071, 105.299, 11.8193, -18.0559
176, 0.00000, 66395.3, 30, 66395.3, -90, 66395.3, 150, 10.2599, -140.5, 10.4544, 107.26, 11.5485, -17.4212
177, 0.00000, 66395.3, 30, 66395.3, -90, 66395.3, 150, 10.7976, -142.232, 11.0639, 106.239, 12.3011, -19.0222
178, 0.00000, 66395.3, 30, 66395.3, -90, 66395.3, 150, 10.5302, -141.423, 10.7253, 106.731, 11.9106, -18.1235
179, 0.00000, 66395.3, 30, 66395.3, -90, 66395.3, 150, 10.6718, -142.487, 10.4056, 106.881, 11.996, -16.7574
180, 0.00000, 66395.3, 30, 66395.3, -90, 66395.3, 150, 10.8046, -143.115, 10.4039, 106.788, 12.1544, -16.6151
181, 0.00000, 66395.3, 30, 66395.3, -90, 66395.3, 150, 10.8652, -143.653, 10.3547, 106.921, 12.2652, -16.4189
182, 0.00000, 66395.3, 30, 66395.3, -90, 66395.3, 150, 10.7752, -143.519, 10.2618, 107.181, 12.1786, -16.1988
183, 0.00000, 66395.3, 30, 66395.3, -90, 66395.3, 150, 10.7655, -143.404, 10.2724, 107.139, 12.155, -16.2345
