hour, t(sec), V1, VAngle1, V2, VAngle2, V3, VAngle3, V4, VAngle4, I1, IAngle1, I2, IAngle2, I3, IAngle3, I4, IAngle4
1, 0.00000, 2337.5, -4.50724, 2340.92, -124.552, 2344.67, 114.387, 0, 0, 58.5344, -4.50739, 58.6202, -124.552, 58.714, 114.387, 1.04835, -145.428
2, 0.00000, 2336.93, -4.52072, 2341.28, -124.543, 2344.75, 114.388, 0, 0, 59.2184, -4.52023, 59.3281, -124.543, 59.416, 114.388, 1.03667, -146.068
3, 0.00000, 2335.26, -4.5517, 2340.5, -124.575, 2345.65, 114.414, 0, 0, 59.9211, -4.55109, 60.0552, -124.575, 60.1871, 114.413, 0.982255, -142.147
4, 0.00000, 2334.85, -4.55935, 2340.33, -124.582, 2345.85, 114.419, 0, 0, 60.0907, -4.55918, 60.2315, -124.582, 60.3734, 114.419, 0.968739, -141.197
5, 0.00000, 2327.29, -4.73817, 2333.82, -124.745, 2337.9, 114.23, 0, 0, 62.8434, -4.73593, 63.0185, -124.744, 63.1295, 114.232, 1.0003, -143.426
6, 0.00000, 2325.28, -4.79455, 2330.83, -124.805, 2332.15, 114.091, 0, 0, 62.4604, -4.79407, 62.6095, -124.804, 62.6461, 114.092, 1.08862, -149.039
7, 0.00000, 2302.77, -5.33723, 2311.69, -125.25, 2318.31, 113.407, 0, 0, 70.6073, -5.33723, 70.8809, -125.25, 71.0838, 113.407, 1.39351, -145.858
8, 0.00000, 2308.06, -5.21766, 2322.08, -124.998, 2323.71, 113.534, 0, 0, 71.2834, -5.221, 71.7161, -125.004, 71.7654, 113.53, 1.32588, -154.642
9, 0.00000, 2296.98, -5.49819, 2314.58, -125.154, 2308.1, 113.154, 0, 0, 77.5259, -5.49789, 78.1196, -125.154, 77.9012, 113.154, 1.59259, -168.148
10, 0.00000, 2301.86, -5.371, 2318.27, -125.09, 2316.9, 113.367, 0, 0, 76.8996, -5.37116, 77.4483, -125.09, 77.4024, 113.367, 1.42571, -160.166
11, 0.00000, 2295.52, -5.46886, 2320.19, -125.096, 2326.51, 113.611, 0, 0, 77.3617, -5.46855, 78.1926, -125.096, 78.4054, 113.611, 0.815463, -142.793
12, 0.00000, 2291.74, -5.54317, 2319.77, -125.115, 2326.92, 113.625, 0, 0, 77.5384, -5.54321, 78.4869, -125.115, 78.7288, 113.625, 0.648617, -137.475
13, 0.00000, 2289.41, -5.58602, 2320.67, -125.094, 2327.92, 113.65, 0, 0, 77.0241, -5.58775, 78.0757, -125.095, 78.3191, 113.65, 0.504021, -134.448
14, 0.00000, 2291.03, -5.54772, 2322.3, -125.053, 2329.83, 113.695, 0, 0, 76.3019, -5.548, 77.343, -125.054, 77.5931, 113.694, 0.497842, -133.365
15, 0.00000, 2291.46, -5.53999, 2322.05, -125.06, 2329.66, 113.691, 0, 0, 76.5336, -5.53961, 77.5552, -125.06, 77.8096, 113.691, 0.525334, -133.453
16, 0.00000, 2291, -5.55346, 2320.94, -125.086, 2328.09, 113.654, 0, 0, 76.5729, -5.5531, 77.5741, -125.085, 77.8133, 113.655, 0.559005, -136.244
17, 0.00000, 2290.72, -5.57104, 2319.04, -125.11, 2322.7, 113.526, 0, 0, 74.2977, -5.57081, 75.2166, -125.11, 75.3373, 113.529, 0.694507, -151.632
18, 0.00000, 2293.51, -5.54325, 2312.16, -125.227, 2311.75, 113.259, 0, 0, 70.2229, -5.54247, 70.7963, -125.225, 70.789, 113.263, 1.17798, -159.2
19, 0.00000, 2295.21, -5.54072, 2307.76, -125.27, 2301.26, 112.997, 0, 0, 66.6012, -5.54071, 66.9653, -125.27, 66.7767, 112.997, 1.57662, -166.6
20, 0.00000, 2298.87, -5.46628, 2309.22, -125.225, 2301.93, 113.009, 0, 0, 66.1818, -5.46639, 66.48, -125.225, 66.2702, 113.009, 1.6771, -166.68
21, 0.00000, 2307.79, -5.2697, 2315.42, -125.056, 2307.34, 113.132, 0, 0, 62.7901, -5.26992, 62.998, -125.056, 62.7781, 113.132, 1.72329, -166.766
22, 0.00000, 2314.69, -5.10777, 2319.98, -124.956, 2315.09, 113.312, 0, 0, 62.5912, -5.10802, 62.7342, -124.956, 62.602, 113.312, 1.70095, -162.834
23, 0.00000, 2330.46, -4.72052, 2329.75, -124.758, 2334.92, 113.787, 0, 0, 59.8823, -4.72118, 59.8641, -124.758, 59.9968, 113.787, 1.56491, -149.724
24, 0.00000, 2328.21, -4.72361, 2334.06, -124.712, 2349.14, 114.142, 0, 0, 59.8636, -4.72351, 60.014, -124.712, 60.4016, 114.141, 1.15941, -132.412
25, 0.00000, 2337.36, -4.50389, 2340.88, -124.557, 2359.63, 114.393, 0, 0, 58.531, -4.5043, 58.6194, -124.557, 59.0889, 114.392, 1.1714, -126.536
26, 0.00000, 2336.78, -4.51733, 2341.24, -124.548, 2359.71, 114.393, 0, 0, 59.2147, -4.51633, 59.3272, -124.548, 59.7952, 114.393, 1.15877, -126.646
27, 0.00000, 2335.11, -4.54829, 2340.46, -124.58, 2360.61, 114.418, 0, 0, 59.9174, -4.54669, 60.0542, -124.579, 60.571, 114.417, 1.13448, -122.321
28, 0.00000, 2334.7, -4.55596, 2340.29, -124.587, 2360.8, 114.424, 0, 0, 60.0869, -4.55555, 60.2306, -124.587, 60.7584, 114.424, 1.12659, -121.242
29, 0.00000, 2327.13, -4.73458, 2333.79, -124.75, 2352.82, 114.235, 0, 0, 62.8395, -4.72718, 63.0177, -124.745, 63.5327, 114.244, 1.1522, -122.722
30, 0.00000, 2325.13, -4.7911, 2330.79, -124.81, 2347.05, 114.096, 0, 0, 62.4565, -4.78919, 62.6086, -124.807, 63.0465, 114.102, 1.19691, -129.068
31, 0.00000, 2302.77, -5.33721, 2311.69, -125.25, 2318.31, 113.407, 0, 0, 70.6078, -5.33675, 70.8809, -125.25, 71.0841, 113.408, 1.3938, -145.841
32, 0.00000, 2308.06, -5.21766, 2322.08, -124.998, 2323.71, 113.534, 0, 0, 71.2834, -5.221, 71.7161, -125.004, 71.7654, 113.53, 1.32588, -154.642
33, 0.00000, 2296.98, -5.49819, 2314.58, -125.154, 2308.1, 113.154, 0, 0, 77.5259, -5.49789, 78.1196, -125.154, 77.9012, 113.154, 1.59259, -168.148
34, 0.00000, 2301.86, -5.371, 2318.27, -125.09, 2316.9, 113.367, 0, 0, 76.8996, -5.37116, 77.4483, -125.09, 77.4024, 113.367, 1.42571, -160.166
35, 0.00000, 2295.52, -5.46886, 2320.19, -125.096, 2326.51, 113.611, 0, 0, 77.3617, -5.46855, 78.1926, -125.096, 78.4054, 113.611, 0.815463, -142.793
36, 0.00000, 2291.74, -5.54317, 2319.77, -125.115, 2326.92, 113.625, 0, 0, 77.5384, -5.54321, 78.4869, -125.115, 78.7288, 113.625, 0.648617, -137.475
37, 0.00000, 2289.41, -5.58602, 2320.67, -125.094, 2327.92, 113.65, 0, 0, 77.0241, -5.58775, 78.0757, -125.095, 78.3191, 113.65, 0.504021, -134.448
38, 0.00000, 2291.03, -5.54772, 2322.3, -125.053, 2329.83, 113.695, 0, 0, 76.3019, -5.548, 77.343, -125.054, 77.5931, 113.694, 0.497842, -133.365
39, 0.00000, 2291.46, -5.53999, 2322.05, -125.06, 2329.66, 113.691, 0, 0, 76.5336, -5.53961, 77.5552, -125.06, 77.8096, 113.691, 0.525334, -133.453
40, 0.00000, 2291, -5.55346, 2320.94, -125.086, 2328.09, 113.654, 0, 0, 76.5729, -5.5531, 77.5741, -125.085, 77.8133, 113.655, 0.559005, -136.244
41, 0.00000, 2290.72, -5.57104, 2319.04, -125.11, 2322.7, 113.526, 0, 0, 74.2977, -5.57081, 75.2166, -125.11, 75.3373, 113.529, 0.694507, -151.632
42, 0.00000, 2293.51, -5.54325, 2312.16, -125.227, 2311.75, 113.259, 0, 0, 70.2229, -5.54247, 70.7963, -125.225, 70.789, 113.263, 1.17798, -159.2
43, 0.00000, 2295.21, -5.54072, 2307.76, -125.27, 2301.26, 112.997, 0, 0, 66.6012, -5.54071, 66.9653, -125.27, 66.7767, 112.997, 1.57662, -166.6
44, 0.00000, 2298.87, -5.46628, 2309.22, -125.225, 2301.93, 113.009, 0, 0, 66.1818, -5.46639, 66.48, -125.225, 66.2702, 113.009, 1.6771, -166.68
45, 0.00000, 2307.79, -5.2697, 2315.42, -125.056, 2307.34, 113.132, 0, 0, 62.7901, -5.26992, 62.998, -125.056, 62.7781, 113.132, 1.72329, -166.766
46, 0.00000, 2314.69, -5.10777, 2319.98, -124.956, 2315.09, 113.312, 0, 0, 62.5912, -5.10802, 62.7342, -124.956, 62.602, 113.312, 1.70095, -162.834
47, 0.00000, 2330.46, -4.72052, 2329.75, -124.758, 2334.92, 113.787, 0, 0, 59.8823, -4.72118, 59.8641, -124.758, 59.9968, 113.787, 1.56491, -149.724
48, 0.00000, 2328.21, -4.72361, 2334.06, -124.712, 2349.14, 114.142, 0, 0, 59.8636, -4.72351, 60.014, -124.712, 60.4016, 114.141, 1.15941, -132.412
49, 0.00000, 2337.36, -4.50389, 2340.88, -124.557, 2359.63, 114.393, 0, 0, 58.531, -4.5043, 58.6194, -124.557, 59.0889, 114.392, 1.1714, -126.536
50, 0.00000, 2336.78, -4.51733, 2341.24, -124.548, 2359.71, 114.393, 0, 0, 59.2147, -4.51633, 59.3272, -124.548, 59.7952, 114.393, 1.15877, -126.646
51, 0.00000, 2335.11, -4.54829, 2340.46, -124.58, 2360.61, 114.418, 0, 0, 59.9174, -4.54669, 60.0542, -124.579, 60.571, 114.417, 1.13448, -122.321
52, 0.00000, 2334.7, -4.55596, 2340.29, -124.587, 2360.8, 114.424, 0, 0, 60.0869, -4.55555, 60.2306, -124.587, 60.7584, 114.424, 1.12659, -121.242
53, 0.00000, 2327.13, -4.73458, 2333.79, -124.75, 2352.82, 114.235, 0, 0, 62.8395, -4.72718, 63.0177, -124.745, 63.5327, 114.244, 1.1522, -122.722
54, 0.00000, 2325.13, -4.7911, 2330.79, -124.81, 2347.05, 114.096, 0, 0, 62.4565, -4.78919, 62.6086, -124.807, 63.0465, 114.102, 1.19691, -129.068
55, 0.00000, 2302.77, -5.33721, 2311.69, -125.25, 2318.31, 113.407, 0, 0, 70.6078, -5.33675, 70.8809, -125.25, 71.0841, 113.408, 1.3938, -145.841
56, 0.00000, 2308.06, -5.21766, 2322.08, -124.998, 2323.71, 113.534, 0, 0, 71.2834, -5.221, 71.7161, -125.004, 71.7654, 113.53, 1.32588, -154.642
57, 0.00000, 2296.98, -5.49819, 2314.58, -125.154, 2308.1, 113.154, 0, 0, 77.5259, -5.49789, 78.1196, -125.154, 77.9012, 113.154, 1.59259, -168.148
58, 0.00000, 2301.86, -5.371, 2318.27, -125.09, 2316.9, 113.367, 0, 0, 76.8996, -5.37116, 77.4483, -125.09, 77.4024, 113.367, 1.42571, -160.166
59, 0.00000, 2295.52, -5.46886, 2320.19, -125.096, 2326.51, 113.611, 0, 0, 77.3617, -5.46855, 78.1926, -125.096, 78.4054, 113.611, 0.815463, -142.793
60, 0.00000, 2291.74, -5.54317, 2319.77, -125.115, 2326.92, 113.625, 0, 0, 77.5384, -5.54321, 78.4869, -125.115, 78.7288, 113.625, 0.648617, -137.475
61, 0.00000, 2289.41, -5.58602, 2320.67, -125.094, 2327.92, 113.65, 0, 0, 77.0241, -5.58775, 78.0757, -125.095, 78.3191, 113.65, 0.504021, -134.448
62, 0.00000, 2291.03, -5.54772, 2322.3, -125.053, 2329.83, 113.695, 0, 0, 76.3019, -5.548, 77.343, -125.054, 77.5931, 113.694, 0.497842, -133.365
63, 0.00000, 2291.46, -5.53999, 2322.05, -125.06, 2329.66, 113.691, 0, 0, 76.5336, -5.53961, 77.5552, -125.06, 77.8096, 113.691, 0.525334, -133.453
64, 0.00000, 2291, -5.55346, 2320.94, -125.086, 2328.09, 113.654, 0, 0, 76.5729, -5.5531, 77.5741, -125.085, 77.8133, 113.655, 0.559005, -136.244
65, 0.00000, 2290.72, -5.57104, 2319.04, -125.11, 2322.7, 113.526, 0, 0, 74.2977, -5.57081, 75.2166, -125.11, 75.3373, 113.529, 0.694507, -151.632
66, 0.00000, 2293.51, -5.54325, 2312.16, -125.227, 2311.75, 113.259, 0, 0, 70.2229, -5.54247, 70.7963, -125.225, 70.789, 113.263, 1.17798, -159.2
67, 0.00000, 2295.21, -5.54072, 2307.76, -125.27, 2301.26, 112.997, 0, 0, 66.6012, -5.54071, 66.9653, -125.27, 66.7767, 112.997, 1.57662, -166.6
68, 0.00000, 2298.87, -5.46628, 2309.22, -125.225, 2301.93, 113.009, 0, 0, 66.1818, -5.46639, 66.48, -125.225, 66.2702, 113.009, 1.6771, -166.68
69, 0.00000, 2307.79, -5.2697, 2315.42, -125.056, 2307.34, 113.132, 0, 0, 62.7901, -5.26992, 62.998, -125.056, 62.7781, 113.132, 1.72329, -166.766
70, 0.00000, 2314.69, -5.10777, 2319.98, -124.956, 2315.09, 113.312, 0, 0, 62.5912, -5.10802, 62.7342, -124.956, 62.602, 113.312, 1.70095, -162.834
71, 0.00000, 2330.46, -4.72052, 2329.75, -124.758, 2334.92, 113.787, 0, 0, 59.8823, -4.72118, 59.8641, -124.758, 59.9968, 113.787, 1.56491, -149.724
72, 0.00000, 2328.21, -4.72361, 2334.06, -124.712, 2349.14, 114.142, 0, 0, 59.8636, -4.72351, 60.014, -124.712, 60.4016, 114.141, 1.15941, -132.412
73, 0.00000, 2337.36, -4.50389, 2340.88, -124.557, 2359.63, 114.393, 0, 0, 58.531, -4.5043, 58.6194, -124.557, 59.0889, 114.392, 1.1714, -126.536
74, 0.00000, 2336.78, -4.51733, 2341.24, -124.548, 2359.71, 114.393, 0, 0, 59.2147, -4.51633, 59.3272, -124.548, 59.7952, 114.393, 1.15877, -126.646
75, 0.00000, 2335.11, -4.54829, 2340.46, -124.58, 2360.61, 114.418, 0, 0, 59.9174, -4.54669, 60.0542, -124.579, 60.571, 114.417, 1.13448, -122.321
76, 0.00000, 2334.7, -4.55596, 2340.29, -124.587, 2360.8, 114.424, 0, 0, 60.0869, -4.55555, 60.2306, -124.587, 60.7584, 114.424, 1.12659, -121.242
77, 0.00000, 2327.13, -4.73458, 2333.79, -124.75, 2352.82, 114.235, 0, 0, 62.8395, -4.72718, 63.0177, -124.745, 63.5327, 114.244, 1.1522, -122.722
78, 0.00000, 2325.13, -4.7911, 2330.79, -124.81, 2347.05, 114.096, 0, 0, 62.4565, -4.78919, 62.6086, -124.807, 63.0465, 114.102, 1.19691, -129.068
79, 0.00000, 2302.77, -5.33721, 2311.69, -125.25, 2318.31, 113.407, 0, 0, 70.6078, -5.33675, 70.8809, -125.25, 71.0841, 113.408, 1.3938, -145.841
80, 0.00000, 2308.06, -5.21766, 2322.08, -124.998, 2323.71, 113.534, 0, 0, 71.2834, -5.221, 71.7161, -125.004, 71.7654, 113.53, 1.32588, -154.642
81, 0.00000, 2296.98, -5.49819, 2314.58, -125.154, 2308.1, 113.154, 0, 0, 77.5259, -5.49789, 78.1196, -125.154, 77.9012, 113.154, 1.59259, -168.148
82, 0.00000, 2301.86, -5.371, 2318.27, -125.09, 2316.9, 113.367, 0, 0, 76.8996, -5.37116, 77.4483, -125.09, 77.4024, 113.367, 1.42571, -160.166
83, 0.00000, 2295.52, -5.46886, 2320.19, -125.096, 2326.51, 113.611, 0, 0, 77.3617, -5.46855, 78.1926, -125.096, 78.4054, 113.611, 0.815463, -142.793
84, 0.00000, 2291.74, -5.54317, 2319.77, -125.115, 2326.92, 113.625, 0, 0, 77.5384, -5.54321, 78.4869, -125.115, 78.7288, 113.625, 0.648617, -137.475
85, 0.00000, 2289.41, -5.58602, 2320.67, -125.094, 2327.92, 113.65, 0, 0, 77.0241, -5.58775, 78.0757, -125.095, 78.3191, 113.65, 0.504021, -134.448
86, 0.00000, 2291.03, -5.54772, 2322.3, -125.053, 2329.83, 113.695, 0, 0, 76.3019, -5.548, 77.343, -125.054, 77.5931, 113.694, 0.497842, -133.365
87, 0.00000, 2291.46, -5.53999, 2322.05, -125.06, 2329.66, 113.691, 0, 0, 76.5336, -5.53961, 77.5552, -125.06, 77.8096, 113.691, 0.525334, -133.453
88, 0.00000, 2291, -5.55346, 2320.94, -125.086, 2328.09, 113.654, 0, 0, 76.5729, -5.5531, 77.5741, -125.085, 77.8133, 113.655, 0.559005, -136.244
89, 0.00000, 2290.72, -5.57104, 2319.04, -125.11, 2322.7, 113.526, 0, 0, 74.2977, -5.57081, 75.2166, -125.11, 75.3373, 113.529, 0.694507, -151.632
90, 0.00000, 2293.51, -5.54325, 2312.16, -125.227, 2311.75, 113.259, 0, 0, 70.2229, -5.54247, 70.7963, -125.225, 70.789, 113.263, 1.17798, -159.2
91, 0.00000, 2295.21, -5.54072, 2307.76, -125.27, 2301.26, 112.997, 0, 0, 66.6012, -5.54071, 66.9653, -125.27, 66.7767, 112.997, 1.57662, -166.6
92, 0.00000, 2298.87, -5.46628, 2309.22, -125.225, 2301.93, 113.009, 0, 0, 66.1818, -5.46639, 66.48, -125.225, 66.2702, 113.009, 1.6771, -166.68
93, 0.00000, 2307.79, -5.2697, 2315.42, -125.056, 2307.34, 113.132, 0, 0, 62.7901, -5.26992, 62.998, -125.056, 62.7781, 113.132, 1.72329, -166.766
94, 0.00000, 2314.69, -5.10777, 2319.98, -124.956, 2315.09, 113.312, 0, 0, 62.5912, -5.10802, 62.7342, -124.956, 62.602, 113.312, 1.70095, -162.834
95, 0.00000, 2330.46, -4.72052, 2329.75, -124.758, 2334.92, 113.787, 0, 0, 59.8823, -4.72118, 59.8641, -124.758, 59.9968, 113.787, 1.56491, -149.724
96, 0.00000, 2328.21, -4.72361, 2334.06, -124.712, 2349.14, 114.142, 0, 0, 59.8636, -4.72351, 60.014, -124.712, 60.4016, 114.141, 1.15941, -132.412
97, 0.00000, 2337.36, -4.50389, 2340.88, -124.557, 2359.63, 114.393, 0, 0, 58.531, -4.5043, 58.6194, -124.557, 59.0889, 114.392, 1.1714, -126.536
98, 0.00000, 2336.78, -4.51733, 2341.24, -124.548, 2359.71, 114.393, 0, 0, 59.2147, -4.51633, 59.3272, -124.548, 59.7952, 114.393, 1.15877, -126.646
99, 0.00000, 2335.11, -4.54829, 2340.46, -124.58, 2360.61, 114.418, 0, 0, 59.9174, -4.54669, 60.0542, -124.579, 60.571, 114.417, 1.13448, -122.321
100, 0.00000, 2334.7, -4.55596, 2340.29, -124.587, 2360.8, 114.424, 0, 0, 60.0869, -4.55555, 60.2306, -124.587, 60.7584, 114.424, 1.12659, -121.242
101, 0.00000, 2327.13, -4.73458, 2333.79, -124.75, 2352.82, 114.235, 0, 0, 62.8395, -4.72718, 63.0177, -124.745, 63.5327, 114.244, 1.1522, -122.722
102, 0.00000, 2325.13, -4.7911, 2330.79, -124.81, 2347.05, 114.096, 0, 0, 62.4565, -4.78919, 62.6086, -124.807, 63.0465, 114.102, 1.19691, -129.068
103, 0.00000, 2302.77, -5.33721, 2311.69, -125.25, 2318.31, 113.407, 0, 0, 70.6078, -5.33675, 70.8809, -125.25, 71.0841, 113.408, 1.3938, -145.841
104, 0.00000, 2308.06, -5.21766, 2322.08, -124.998, 2323.71, 113.534, 0, 0, 71.2834, -5.221, 71.7161, -125.004, 71.7654, 113.53, 1.32588, -154.642
105, 0.00000, 2296.98, -5.49819, 2314.58, -125.154, 2308.1, 113.154, 0, 0, 77.5259, -5.49789, 78.1196, -125.154, 77.9012, 113.154, 1.59259, -168.148
106, 0.00000, 2301.86, -5.371, 2318.27, -125.09, 2316.9, 113.367, 0, 0, 76.8996, -5.37116, 77.4483, -125.09, 77.4024, 113.367, 1.42571, -160.166
107, 0.00000, 2295.52, -5.46886, 2320.19, -125.096, 2326.51, 113.611, 0, 0, 77.3617, -5.46855, 78.1926, -125.096, 78.4054, 113.611, 0.815463, -142.793
108, 0.00000, 2291.74, -5.54317, 2319.77, -125.115, 2326.92, 113.625, 0, 0, 77.5384, -5.54321, 78.4869, -125.115, 78.7288, 113.625, 0.648617, -137.475
109, 0.00000, 2289.41, -5.58602, 2320.67, -125.094, 2327.92, 113.65, 0, 0, 77.0241, -5.58775, 78.0757, -125.095, 78.3191, 113.65, 0.504021, -134.448
110, 0.00000, 2291.03, -5.54772, 2322.3, -125.053, 2329.83, 113.695, 0, 0, 76.3019, -5.548, 77.343, -125.054, 77.5931, 113.694, 0.497842, -133.365
111, 0.00000, 2291.46, -5.53999, 2322.05, -125.06, 2329.66, 113.691, 0, 0, 76.5336, -5.53961, 77.5552, -125.06, 77.8096, 113.691, 0.525334, -133.453
112, 0.00000, 2291, -5.55346, 2320.94, -125.086, 2328.09, 113.654, 0, 0, 76.5729, -5.5531, 77.5741, -125.085, 77.8133, 113.655, 0.559005, -136.244
113, 0.00000, 2290.72, -5.57104, 2319.04, -125.11, 2322.7, 113.526, 0, 0, 74.2977, -5.57081, 75.2166, -125.11, 75.3373, 113.529, 0.694507, -151.632
114, 0.00000, 2293.51, -5.54325, 2312.16, -125.227, 2311.75, 113.259, 0, 0, 70.2229, -5.54247, 70.7963, -125.225, 70.789, 113.263, 1.17798, -159.2
115, 0.00000, 2295.21, -5.54072, 2307.76, -125.27, 2301.26, 112.997, 0, 0, 66.6012, -5.54071, 66.9653, -125.27, 66.7767, 112.997, 1.57662, -166.6
116, 0.00000, 2298.87, -5.46628, 2309.22, -125.225, 2301.93, 113.009, 0, 0, 66.1818, -5.46639, 66.48, -125.225, 66.2702, 113.009, 1.6771, -166.68
117, 0.00000, 2307.79, -5.2697, 2315.42, -125.056, 2307.34, 113.132, 0, 0, 62.7901, -5.26992, 62.998, -125.056, 62.7781, 113.132, 1.72329, -166.766
118, 0.00000, 2314.69, -5.10777, 2319.98, -124.956, 2315.09, 113.312, 0, 0, 62.5912, -5.10802, 62.7342, -124.956, 62.602, 113.312, 1.70095, -162.834
119, 0.00000, 2330.46, -4.72052, 2329.75, -124.758, 2334.92, 113.787, 0, 0, 59.8823, -4.72118, 59.8641, -124.758, 59.9968, 113.787, 1.56491, -149.724
120, 0.00000, 2328.21, -4.72361, 2334.06, -124.712, 2349.14, 114.142, 0, 0, 59.8636, -4.72351, 60.014, -124.712, 60.4016, 114.141, 1.15941, -132.412
121, 0.00000, 2337.36, -4.50389, 2340.88, -124.557, 2359.63, 114.393, 0, 0, 58.531, -4.5043, 58.6194, -124.557, 59.0889, 114.392, 1.1714, -126.536
122, 0.00000, 2336.78, -4.51733, 2341.24, -124.548, 2359.71, 114.393, 0, 0, 59.2147, -4.51633, 59.3272, -124.548, 59.7952, 114.393, 1.15877, -126.646
123, 0.00000, 2335.11, -4.54829, 2340.46, -124.58, 2360.61, 114.418, 0, 0, 59.9174, -4.54669, 60.0542, -124.579, 60.571, 114.417, 1.13448, -122.321
124, 0.00000, 2334.7, -4.55596, 2340.29, -124.587, 2360.8, 114.424, 0, 0, 60.0869, -4.55555, 60.2306, -124.587, 60.7584, 114.424, 1.12659, -121.242
125, 0.00000, 2327.13, -4.73458, 2333.79, -124.75, 2352.82, 114.235, 0, 0, 62.8395, -4.72718, 63.0177, -124.745, 63.5327, 114.244, 1.1522, -122.722
126, 0.00000, 2325.13, -4.7911, 2330.79, -124.81, 2347.05, 114.096, 0, 0, 62.4565, -4.78919, 62.6086, -124.807, 63.0465, 114.102, 1.19691, -129.068
127, 0.00000, 2302.77, -5.33721, 2311.69, -125.25, 2318.31, 113.407, 0, 0, 70.6078, -5.33675, 70.8809, -125.25, 71.0841, 113.408, 1.3938, -145.841
128, 0.00000, 2308.06, -5.21766, 2322.08, -124.998, 2323.71, 113.534, 0, 0, 71.2834, -5.221, 71.7161, -125.004, 71.7654, 113.53, 1.32588, -154.642
129, 0.00000, 2296.98, -5.49819, 2314.58, -125.154, 2308.1, 113.154, 0, 0, 77.5259, -5.49789, 78.1196, -125.154, 77.9012, 113.154, 1.59259, -168.148
130, 0.00000, 2301.86, -5.371, 2318.27, -125.09, 2316.9, 113.367, 0, 0, 76.8996, -5.37116, 77.4483, -125.09, 77.4024, 113.367, 1.42571, -160.166
131, 0.00000, 2295.52, -5.46886, 2320.19, -125.096, 2326.51, 113.611, 0, 0, 77.3617, -5.46855, 78.1926, -125.096, 78.4054, 113.611, 0.815463, -142.793
132, 0.00000, 2291.74, -5.54317, 2319.77, -125.115, 2326.92, 113.625, 0, 0, 77.5384, -5.54321, 78.4869, -125.115, 78.7288, 113.625, 0.648617, -137.475
133, 0.00000, 2289.41, -5.58602, 2320.67, -125.094, 2327.92, 113.65, 0, 0, 77.0241, -5.58775, 78.0757, -125.095, 78.3191, 113.65, 0.504021, -134.448
134, 0.00000, 2291.03, -5.54772, 2322.3, -125.053, 2329.83, 113.695, 0, 0, 76.3019, -5.548, 77.343, -125.054, 77.5931, 113.694, 0.497842, -133.365
