hour, t(sec), V1, VAngle1, V2, VAngle2, I1, IAngle1, I2, IAngle2
1, 0.00000, 2335.45, -3.67798, 0, 0, 1.16095, -3.68173, 1.16095, 176.318
2, 0.00000, 2334.78, -3.69265, 0, 0, 1.06207, -3.69219, 1.06207, 176.308
3, 0.00000, 2333.58, -3.71663, 0, 0, 1.04149, -3.71611, 1.04149, 176.284
4, 0.00000, 2333.28, -3.72276, 0, 0, 1.03428, -3.72262, 1.03428, 176.277
5, 0.00000, 2326.55, -3.86032, 0, 0, 1.16398, -3.85822, 1.16398, 176.142
6, 0.00000, 2324.6, -3.90042, 0, 0, 1.43472, -3.9, 1.43472, 176.1
7, 0.00000, 2303.58, -4.32978, 0, 0, 1.76172, -4.32957, 1.76172, 175.67
8, 0.00000, 2308.12, -4.24225, 0, 0, 1.59879, -4.24206, 1.59879, 175.758
9, 0.00000, 2296.94, -4.47181, 0, 0, 1.4215, -4.47163, 1.4215, 175.528
10, 0.00000, 2302.15, -4.36415, 0, 0, 1.25512, -4.36423, 1.25512, 175.636
11, 0.00000, 2297.1, -4.4666, 0, 0, 1.07857, -4.46641, 1.07857, 175.534
12, 0.00000, 2293.65, -4.53626, 0, 0, 1.08606, -4.53633, 1.08606, 175.464
13, 0.00000, 2291.24, -4.58469, 0, 0, 1.07826, -4.58846, 1.07826, 175.412
14, 0.00000, 2292.64, -4.55694, 0, 0, 1.05089, -4.55616, 1.05089, 175.444
15, 0.00000, 2293.11, -4.54743, 0, 0, 1.04151, -4.54664, 1.04151, 175.453
16, 0.00000, 2292.77, -4.55433, 0, 0, 1.12252, -4.55421, 1.12252, 175.446
17, 0.00000, 2292.3, -4.56423, 0, 0, 1.57132, -4.56441, 1.57132, 175.436
18, 0.00000, 2294.38, -4.52185, 0, 0, 2.19701, -4.51912, 2.19701, 175.481
19, 0.00000, 2294.49, -4.52059, 0, 0, 2.53494, -4.52059, 2.53494, 175.479
20, 0.00000, 2297.69, -4.45621, 0, 0, 2.47246, -4.45628, 2.47246, 175.544
21, 0.00000, 2305.41, -4.30122, 0, 0, 2.43917, -4.30133, 2.43917, 175.699
22, 0.00000, 2311.99, -4.16621, 0, 0, 2.12211, -4.16631, 2.12211, 175.834
23, 0.00000, 2327.81, -3.83621, 0, 0, 1.74234, -3.83638, 1.74234, 176.164
24, 0.00000, 2326.76, -3.8588, 0, 0, 1.44242, -3.85766, 1.44242, 176.142
25, 0.00000, 2335.45, -3.67792, 0, 0, 1.16091, -3.67803, 1.16091, 176.322
26, 0.00000, 2334.78, -3.69265, 0, 0, 1.06207, -3.69219, 1.06207, 176.308
27, 0.00000, 2333.58, -3.71663, 0, 0, 1.04149, -3.71611, 1.04149, 176.284
28, 0.00000, 2333.28, -3.72276, 0, 0, 1.03428, -3.72262, 1.03428, 176.277
29, 0.00000, 2326.55, -3.86032, 0, 0, 1.16398, -3.85822, 1.16398, 176.142
30, 0.00000, 2324.6, -3.90042, 0, 0, 1.43472, -3.9, 1.43472, 176.1
31, 0.00000, 2303.58, -4.32978, 0, 0, 1.76172, -4.32957, 1.76172, 175.67
32, 0.00000, 2308.12, -4.24225, 0, 0, 1.59879, -4.24206, 1.59879, 175.758
33, 0.00000, 2296.94, -4.47181, 0, 0, 1.4215, -4.47163, 1.4215, 175.528
34, 0.00000, 2302.15, -4.36415, 0, 0, 1.25512, -4.36423, 1.25512, 175.636
35, 0.00000, 2297.1, -4.4666, 0, 0, 1.07857, -4.46641, 1.07857, 175.534
36, 0.00000, 2293.65, -4.53626, 0, 0, 1.08606, -4.53633, 1.08606, 175.464
37, 0.00000, 2291.24, -4.58469, 0, 0, 1.07826, -4.58846, 1.07826, 175.412
38, 0.00000, 2292.64, -4.55694, 0, 0, 1.05089, -4.55616, 1.05089, 175.444
39, 0.00000, 2293.11, -4.54743, 0, 0, 1.04151, -4.54664, 1.04151, 175.453
40, 0.00000, 2292.77, -4.55433, 0, 0, 1.12252, -4.55421, 1.12252, 175.446
41, 0.00000, 2292.3, -4.56423, 0, 0, 1.57132, -4.56441, 1.57132, 175.436
42, 0.00000, 2294.38, -4.52185, 0, 0, 2.19701, -4.51912, 2.19701, 175.481
43, 0.00000, 2294.49, -4.52059, 0, 0, 2.53494, -4.52059, 2.53494, 175.479
44, 0.00000, 2297.69, -4.45621, 0, 0, 2.47246, -4.45628, 2.47246, 175.544
45, 0.00000, 2305.41, -4.30122, 0, 0, 2.43917, -4.30133, 2.43917, 175.699
46, 0.00000, 2311.99, -4.16621, 0, 0, 2.12211, -4.16631, 2.12211, 175.834
47, 0.00000, 2327.81, -3.83621, 0, 0, 1.74234, -3.83638, 1.74234, 176.164
48, 0.00000, 2326.76, -3.8588, 0, 0, 1.44242, -3.85766, 1.44242, 176.142
49, 0.00000, 2335.45, -3.67792, 0, 0, 1.16091, -3.67803, 1.16091, 176.322
50, 0.00000, 2334.78, -3.69265, 0, 0, 1.06207, -3.69219, 1.06207, 176.308
51, 0.00000, 2333.58, -3.71663, 0, 0, 1.04149, -3.71611, 1.04149, 176.284
52, 0.00000, 2333.28, -3.72276, 0, 0, 1.03428, -3.72262, 1.03428, 176.277
53, 0.00000, 2326.55, -3.86032, 0, 0, 1.16398, -3.85822, 1.16398, 176.142
54, 0.00000, 2324.6, -3.90042, 0, 0, 1.43472, -3.9, 1.43472, 176.1
55, 0.00000, 2303.58, -4.32978, 0, 0, 1.76172, -4.32957, 1.76172, 175.67
56, 0.00000, 2308.12, -4.24225, 0, 0, 1.59879, -4.24206, 1.59879, 175.758
57, 0.00000, 2296.94, -4.47181, 0, 0, 1.4215, -4.47163, 1.4215, 175.528
58, 0.00000, 2302.15, -4.36415, 0, 0, 1.25512, -4.36423, 1.25512, 175.636
59, 0.00000, 2297.1, -4.4666, 0, 0, 1.07857, -4.46641, 1.07857, 175.534
60, 0.00000, 2293.65, -4.53626, 0, 0, 1.08606, -4.53633, 1.08606, 175.464
61, 0.00000, 2291.24, -4.58469, 0, 0, 1.07826, -4.58846, 1.07826, 175.412
62, 0.00000, 2292.64, -4.55694, 0, 0, 1.05089, -4.55616, 1.05089, 175.444
63, 0.00000, 2293.11, -4.54743, 0, 0, 1.04151, -4.54664, 1.04151, 175.453
64, 0.00000, 2292.77, -4.55433, 0, 0, 1.12252, -4.55421, 1.12252, 175.446
65, 0.00000, 2292.3, -4.56423, 0, 0, 1.57132, -4.56441, 1.57132, 175.436
66, 0.00000, 2294.38, -4.52185, 0, 0, 2.19701, -4.51912, 2.19701, 175.481
67, 0.00000, 2294.49, -4.52059, 0, 0, 2.53494, -4.52059, 2.53494, 175.479
68, 0.00000, 2297.69, -4.45621, 0, 0, 2.47246, -4.45628, 2.47246, 175.544
69, 0.00000, 2305.41, -4.30122, 0, 0, 2.43917, -4.30133, 2.43917, 175.699
70, 0.00000, 2311.99, -4.16621, 0, 0, 2.12211, -4.16631, 2.12211, 175.834
71, 0.00000, 2327.81, -3.83621, 0, 0, 1.74234, -3.83638, 1.74234, 176.164
72, 0.00000, 2326.76, -3.8588, 0, 0, 1.44242, -3.85766, 1.44242, 176.142
73, 0.00000, 2335.45, -3.67792, 0, 0, 1.16091, -3.67803, 1.16091, 176.322
74, 0.00000, 2334.78, -3.69265, 0, 0, 1.06207, -3.69219, 1.06207, 176.308
75, 0.00000, 2333.58, -3.71663, 0, 0, 1.04149, -3.71611, 1.04149, 176.284
76, 0.00000, 2333.28, -3.72276, 0, 0, 1.03428, -3.72262, 1.03428, 176.277
77, 0.00000, 2326.55, -3.86032, 0, 0, 1.16398, -3.85822, 1.16398, 176.142
78, 0.00000, 2324.6, -3.90042, 0, 0, 1.43472, -3.9, 1.43472, 176.1
79, 0.00000, 2303.58, -4.32978, 0, 0, 1.76172, -4.32957, 1.76172, 175.67
80, 0.00000, 2308.12, -4.24225, 0, 0, 1.59879, -4.24206, 1.59879, 175.758
81, 0.00000, 2296.94, -4.47181, 0, 0, 1.4215, -4.47163, 1.4215, 175.528
82, 0.00000, 2302.15, -4.36415, 0, 0, 1.25512, -4.36423, 1.25512, 175.636
83, 0.00000, 2297.1, -4.4666, 0, 0, 1.07857, -4.46641, 1.07857, 175.534
84, 0.00000, 2293.65, -4.53626, 0, 0, 1.08606, -4.53633, 1.08606, 175.464
85, 0.00000, 2291.24, -4.58469, 0, 0, 1.07826, -4.58846, 1.07826, 175.412
86, 0.00000, 2292.64, -4.55694, 0, 0, 1.05089, -4.55616, 1.05089, 175.444
87, 0.00000, 2293.11, -4.54743, 0, 0, 1.04151, -4.54664, 1.04151, 175.453
88, 0.00000, 2292.77, -4.55433, 0, 0, 1.12252, -4.55421, 1.12252, 175.446
89, 0.00000, 2292.3, -4.56423, 0, 0, 1.57132, -4.56441, 1.57132, 175.436
90, 0.00000, 2294.38, -4.52185, 0, 0, 2.19701, -4.51912, 2.19701, 175.481
91, 0.00000, 2294.49, -4.52059, 0, 0, 2.53494, -4.52059, 2.53494, 175.479
92, 0.00000, 2297.69, -4.45621, 0, 0, 2.47246, -4.45628, 2.47246, 175.544
93, 0.00000, 2305.41, -4.30122, 0, 0, 2.43917, -4.30133, 2.43917, 175.699
94, 0.00000, 2311.99, -4.16621, 0, 0, 2.12211, -4.16631, 2.12211, 175.834
95, 0.00000, 2327.81, -3.83621, 0, 0, 1.74234, -3.83638, 1.74234, 176.164
96, 0.00000, 2326.76, -3.8588, 0, 0, 1.44242, -3.85766, 1.44242, 176.142
97, 0.00000, 2335.45, -3.67792, 0, 0, 1.16091, -3.67803, 1.16091, 176.322
98, 0.00000, 2334.78, -3.69265, 0, 0, 1.06207, -3.69219, 1.06207, 176.308
99, 0.00000, 2333.58, -3.71663, 0, 0, 1.04149, -3.71611, 1.04149, 176.284
100, 0.00000, 2333.28, -3.72276, 0, 0, 1.03428, -3.72262, 1.03428, 176.277
101, 0.00000, 2326.55, -3.86032, 0, 0, 1.16398, -3.85822, 1.16398, 176.142
102, 0.00000, 2324.6, -3.90042, 0, 0, 1.43472, -3.9, 1.43472, 176.1
103, 0.00000, 2303.58, -4.32978, 0, 0, 1.76172, -4.32957, 1.76172, 175.67
104, 0.00000, 2308.12, -4.24225, 0, 0, 1.59879, -4.24206, 1.59879, 175.758
105, 0.00000, 2296.94, -4.47181, 0, 0, 1.4215, -4.47163, 1.4215, 175.528
106, 0.00000, 2302.15, -4.36415, 0, 0, 1.25512, -4.36423, 1.25512, 175.636
107, 0.00000, 2297.1, -4.4666, 0, 0, 1.07857, -4.46641, 1.07857, 175.534
108, 0.00000, 2293.65, -4.53626, 0, 0, 1.08606, -4.53633, 1.08606, 175.464
109, 0.00000, 2291.24, -4.58469, 0, 0, 1.07826, -4.58846, 1.07826, 175.412
110, 0.00000, 2292.64, -4.55694, 0, 0, 1.05089, -4.55616, 1.05089, 175.444
111, 0.00000, 2293.11, -4.54743, 0, 0, 1.04151, -4.54664, 1.04151, 175.453
112, 0.00000, 2292.77, -4.55433, 0, 0, 1.12252, -4.55421, 1.12252, 175.446
113, 0.00000, 2292.3, -4.56423, 0, 0, 1.57132, -4.56441, 1.57132, 175.436
114, 0.00000, 2294.38, -4.52185, 0, 0, 2.19701, -4.51912, 2.19701, 175.481
115, 0.00000, 2294.49, -4.52059, 0, 0, 2.53494, -4.52059, 2.53494, 175.479
116, 0.00000, 2297.69, -4.45621, 0, 0, 2.47246, -4.45628, 2.47246, 175.544
117, 0.00000, 2305.41, -4.30122, 0, 0, 2.43917, -4.30133, 2.43917, 175.699
118, 0.00000, 2311.99, -4.16621, 0, 0, 2.12211, -4.16631, 2.12211, 175.834
119, 0.00000, 2327.81, -3.83621, 0, 0, 1.74234, -3.83638, 1.74234, 176.164
120, 0.00000, 2326.76, -3.8588, 0, 0, 1.44242, -3.85766, 1.44242, 176.142
121, 0.00000, 2335.45, -3.67792, 0, 0, 1.16091, -3.67803, 1.16091, 176.322
122, 0.00000, 2334.78, -3.69265, 0, 0, 1.06207, -3.69219, 1.06207, 176.308
123, 0.00000, 2333.58, -3.71663, 0, 0, 1.04149, -3.71611, 1.04149, 176.284
124, 0.00000, 2333.28, -3.72276, 0, 0, 1.03428, -3.72262, 1.03428, 176.277
125, 0.00000, 2326.55, -3.86032, 0, 0, 1.16398, -3.85822, 1.16398, 176.142
126, 0.00000, 2324.6, -3.90042, 0, 0, 1.43472, -3.9, 1.43472, 176.1
127, 0.00000, 2303.58, -4.32978, 0, 0, 1.76172, -4.32957, 1.76172, 175.67
128, 0.00000, 2308.12, -4.24225, 0, 0, 1.59879, -4.24206, 1.59879, 175.758
129, 0.00000, 2296.94, -4.47181, 0, 0, 1.4215, -4.47163, 1.4215, 175.528
130, 0.00000, 2302.15, -4.36415, 0, 0, 1.25512, -4.36423, 1.25512, 175.636
131, 0.00000, 2297.1, -4.4666, 0, 0, 1.07857, -4.46641, 1.07857, 175.534
132, 0.00000, 2293.65, -4.53626, 0, 0, 1.08606, -4.53633, 1.08606, 175.464
133, 0.00000, 2291.24, -4.58469, 0, 0, 1.07826, -4.58846, 1.07826, 175.412
134, 0.00000, 2292.64, -4.55694, 0, 0, 1.05089, -4.55616, 1.05089, 175.444
135, 0.00000, 2293.11, -4.54743, 0, 0, 1.04151, -4.54664, 1.04151, 175.453
136, 0.00000, 2292.77, -4.55433, 0, 0, 1.12252, -4.55421, 1.12252, 175.446
137, 0.00000, 2292.3, -4.56423, 0, 0, 1.57132, -4.56441, 1.57132, 175.436
138, 0.00000, 2294.38, -4.52185, 0, 0, 2.19701, -4.51912, 2.19701, 175.481
139, 0.00000, 2294.49, -4.52059, 0, 0, 2.53494, -4.52059, 2.53494, 175.479
140, 0.00000, 2297.69, -4.45621, 0, 0, 2.47246, -4.45628, 2.47246, 175.544
141, 0.00000, 2305.41, -4.30122, 0, 0, 2.43917, -4.30133, 2.43917, 175.699
142, 0.00000, 2311.99, -4.16621, 0, 0, 2.12211, -4.16631, 2.12211, 175.834
143, 0.00000, 2327.81, -3.83621, 0, 0, 1.74234, -3.83638, 1.74234, 176.164
144, 0.00000, 2326.76, -3.8588, 0, 0, 1.44242, -3.85766, 1.44242, 176.142
145, 0.00000, 2335.45, -3.67792, 0, 0, 1.16091, -3.67803, 1.16091, 176.322
146, 0.00000, 2334.78, -3.69265, 0, 0, 1.06207, -3.69219, 1.06207, 176.308
147, 0.00000, 2333.58, -3.71663, 0, 0, 1.04149, -3.71611, 1.04149, 176.284
148, 0.00000, 2333.28, -3.72276, 0, 0, 1.03428, -3.72262, 1.03428, 176.277
149, 0.00000, 2326.55, -3.86032, 0, 0, 1.16398, -3.85822, 1.16398, 176.142
150, 0.00000, 2324.6, -3.90042, 0, 0, 1.43472, -3.9, 1.43472, 176.1
151, 0.00000, 2303.58, -4.32978, 0, 0, 1.76172, -4.32957, 1.76172, 175.67
152, 0.00000, 2308.12, -4.24225, 0, 0, 1.59879, -4.24206, 1.59879, 175.758
153, 0.00000, 2296.94, -4.47181, 0, 0, 1.4215, -4.47163, 1.4215, 175.528
154, 0.00000, 2302.15, -4.36415, 0, 0, 1.25512, -4.36423, 1.25512, 175.636
155, 0.00000, 2297.1, -4.4666, 0, 0, 1.07857, -4.46641, 1.07857, 175.534
156, 0.00000, 2293.65, -4.53626, 0, 0, 1.08606, -4.53633, 1.08606, 175.464
157, 0.00000, 2291.24, -4.58469, 0, 0, 1.07826, -4.58846, 1.07826, 175.412
158, 0.00000, 2292.64, -4.55694, 0, 0, 1.05089, -4.55616, 1.05089, 175.444
159, 0.00000, 2293.11, -4.54743, 0, 0, 1.04151, -4.54664, 1.04151, 175.453
160, 0.00000, 2292.77, -4.55433, 0, 0, 1.12252, -4.55421, 1.12252, 175.446
161, 0.00000, 2292.3, -4.56423, 0, 0, 1.57132, -4.56441, 1.57132, 175.436
162, 0.00000, 2294.38, -4.52185, 0, 0, 2.19701, -4.51912, 2.19701, 175.481
163, 0.00000, 2294.49, -4.52059, 0, 0, 2.53494, -4.52059, 2.53494, 175.479
164, 0.00000, 2297.69, -4.45621, 0, 0, 2.47246, -4.45628, 2.47246, 175.544
165, 0.00000, 2305.41, -4.30122, 0, 0, 2.43917, -4.30133, 2.43917, 175.699
166, 0.00000, 2311.99, -4.16621, 0, 0, 2.12211, -4.16631, 2.12211, 175.834
167, 0.00000, 2327.81, -3.83621, 0, 0, 1.74234, -3.83638, 1.74234, 176.164
168, 0.00000, 2326.76, -3.8588, 0, 0, 1.44242, -3.85766, 1.44242, 176.142
169, 0.00000, 2335.45, -3.67792, 0, 0, 1.16091, -3.67803, 1.16091, 176.322
170, 0.00000, 2334.78, -3.69265, 0, 0, 1.06207, -3.69219, 1.06207, 176.308
171, 0.00000, 2333.58, -3.71663, 0, 0, 1.04149, -3.71611, 1.04149, 176.284
172, 0.00000, 2333.28, -3.72276, 0, 0, 1.03428, -3.72262, 1.03428, 176.277
173, 0.00000, 2326.55, -3.86032, 0, 0, 1.16398, -3.85822, 1.16398, 176.142
174, 0.00000, 2324.6, -3.90042, 0, 0, 1.43472, -3.9, 1.43472, 176.1
175, 0.00000, 2303.58, -4.32978, 0, 0, 1.76172, -4.32957, 1.76172, 175.67
176, 0.00000, 2308.12, -4.24225, 0, 0, 1.59879, -4.24206, 1.59879, 175.758
177, 0.00000, 2296.94, -4.47181, 0, 0, 1.4215, -4.47163, 1.4215, 175.528
178, 0.00000, 2302.15, -4.36415, 0, 0, 1.25512, -4.36423, 1.25512, 175.636
179, 0.00000, 2297.1, -4.4666, 0, 0, 1.07857, -4.46641, 1.07857, 175.534
180, 0.00000, 2293.65, -4.53626, 0, 0, 1.08606, -4.53633, 1.08606, 175.464
181, 0.00000, 2291.24, -4.58469, 0, 0, 1.07826, -4.58846, 1.07826, 175.412
182, 0.00000, 2292.64, -4.55694, 0, 0, 1.05089, -4.55616, 1.05089, 175.444
183, 0.00000, 2293.11, -4.54743, 0, 0, 1.04151, -4.54664, 1.04151, 175.453
184, 0.00000, 2292.77, -4.55433, 0, 0, 1.12252, -4.55421, 1.12252, 175.446
185, 0.00000, 2292.3, -4.56423, 0, 0, 1.57132, -4.56441, 1.57132, 175.436
186, 0.00000, 2294.38, -4.52185, 0, 0, 2.19701, -4.51912, 2.19701, 175.481
187, 0.00000, 2294.49, -4.52059, 0, 0, 2.53494, -4.52059, 2.53494, 175.479
188, 0.00000, 2297.69, -4.45621, 0, 0, 2.47246, -4.45628, 2.47246, 175.544
189, 0.00000, 2305.41, -4.30122, 0, 0, 2.43917, -4.30133, 2.43917, 175.699
190, 0.00000, 2311.99, -4.16621, 0, 0, 2.12211, -4.16631, 2.12211, 175.834
191, 0.00000, 2327.81, -3.83621, 0, 0, 1.74234, -3.83638, 1.74234, 176.164
192, 0.00000, 2326.76, -3.8588, 0, 0, 1.44242, -3.85766, 1.44242, 176.142
193, 0.00000, 2335.45, -3.67792, 0, 0, 1.16091, -3.67803, 1.16091, 176.322
194, 0.00000, 2334.78, -3.69265, 0, 0, 1.06207, -3.69219, 1.06207, 176.308
195, 0.00000, 2333.58, -3.71663, 0, 0, 1.04149, -3.71611, 1.04149, 176.284
196, 0.00000, 2333.28, -3.72276, 0, 0, 1.03428, -3.72262, 1.03428, 176.277
197, 0.00000, 2326.55, -3.86032, 0, 0, 1.16398, -3.85822, 1.16398, 176.142
198, 0.00000, 2324.6, -3.90042, 0, 0, 1.43472, -3.9, 1.43472, 176.1
199, 0.00000, 2303.58, -4.32978, 0, 0, 1.76172, -4.32957, 1.76172, 175.67
200, 0.00000, 2308.12, -4.24225, 0, 0, 1.59879, -4.24206, 1.59879, 175.758
201, 0.00000, 2296.94, -4.47181, 0, 0, 1.4215, -4.47163, 1.4215, 175.528
202, 0.00000, 2302.15, -4.36415, 0, 0, 1.25512, -4.36423, 1.25512, 175.636
203, 0.00000, 2297.1, -4.4666, 0, 0, 1.07857, -4.46641, 1.07857, 175.534
204, 0.00000, 2293.65, -4.53626, 0, 0, 1.08606, -4.53633, 1.08606, 175.464
205, 0.00000, 2291.24, -4.58469, 0, 0, 1.07826, -4.58846, 1.07826, 175.412
206, 0.00000, 2292.64, -4.55694, 0, 0, 1.05089, -4.55616, 1.05089, 175.444
207, 0.00000, 2293.11, -4.54743, 0, 0, 1.04151, -4.54664, 1.04151, 175.453
208, 0.00000, 2292.77, -4.55433, 0, 0, 1.12252, -4.55421, 1.12252, 175.446
209, 0.00000, 2292.3, -4.56423, 0, 0, 1.57132, -4.56441, 1.57132, 175.436
210, 0.00000, 2294.38, -4.52185, 0, 0, 2.19701, -4.51912, 2.19701, 175.481
211, 0.00000, 2294.49, -4.52059, 0, 0, 2.53494, -4.52059, 2.53494, 175.479
212, 0.00000, 2297.69, -4.45621, 0, 0, 2.47246, -4.45628, 2.47246, 175.544
213, 0.00000, 2305.41, -4.30122, 0, 0, 2.43917, -4.30133, 2.43917, 175.699
214, 0.00000, 2311.99, -4.16621, 0, 0, 2.12211, -4.16631, 2.12211, 175.834
215, 0.00000, 2327.81, -3.83621, 0, 0, 1.74234, -3.83638, 1.74234, 176.164
216, 0.00000, 2326.76, -3.8588, 0, 0, 1.44242, -3.85766, 1.44242, 176.142
217, 0.00000, 2335.45, -3.67792, 0, 0, 1.16091, -3.67803, 1.16091, 176.322
218, 0.00000, 2334.78, -3.69265, 0, 0, 1.06207, -3.69219, 1.06207, 176.308
219, 0.00000, 2333.58, -3.71663, 0, 0, 1.04149, -3.71611, 1.04149, 176.284
220, 0.00000, 2333.28, -3.72276, 0, 0, 1.03428, -3.72262, 1.03428, 176.277
221, 0.00000, 2326.55, -3.86032, 0, 0, 1.16398, -3.85822, 1.16398, 176.142
222, 0.00000, 2324.6, -3.90042, 0, 0, 1.43472, -3.9, 1.43472, 176.1
223, 0.00000, 2303.58, -4.32978, 0, 0, 1.76172, -4.32957, 1.76172, 175.67
224, 0.00000, 2308.12, -4.24225, 0, 0, 1.59879, -4.24206, 1.59879, 175.758
225, 0.00000, 2296.94, -4.47181, 0, 0, 1.4215, -4.47163, 1.4215, 175.528
226, 0.00000, 2302.15, -4.36415, 0, 0, 1.25512, -4.36423, 1.25512, 175.636
227, 0.00000, 2297.1, -4.4666, 0, 0, 1.07857, -4.46641, 1.07857, 175.534
228, 0.00000, 2293.65, -4.53626, 0, 0, 1.08606, -4.53633, 1.08606, 175.464
229, 0.00000, 2291.24, -4.58469, 0, 0, 1.07826, -4.58846, 1.07826, 175.412
230, 0.00000, 2292.64, -4.55694, 0, 0, 1.05089, -4.55616, 1.05089, 175.444
231, 0.00000, 2293.11, -4.54743, 0, 0, 1.04151, -4.54664, 1.04151, 175.453
232, 0.00000, 2292.77, -4.55433, 0, 0, 1.12252, -4.55421, 1.12252, 175.446
233, 0.00000, 2292.3, -4.56423, 0, 0, 1.57132, -4.56441, 1.57132, 175.436
234, 0.00000, 2294.38, -4.52185, 0, 0, 2.19701, -4.51912, 2.19701, 175.481
235, 0.00000, 2294.49, -4.52059, 0, 0, 2.53494, -4.52059, 2.53494, 175.479
236, 0.00000, 2297.69, -4.45621, 0, 0, 2.47246, -4.45628, 2.47246, 175.544
237, 0.00000, 2305.41, -4.30122, 0, 0, 2.43917, -4.30133, 2.43917, 175.699
238, 0.00000, 2311.99, -4.16621, 0, 0, 2.12211, -4.16631, 2.12211, 175.834
239, 0.00000, 2327.81, -3.83621, 0, 0, 1.74234, -3.83638, 1.74234, 176.164
240, 0.00000, 2326.76, -3.8588, 0, 0, 1.44242, -3.85766, 1.44242, 176.142
241, 0.00000, 2335.45, -3.67792, 0, 0, 1.16091, -3.67803, 1.16091, 176.322
242, 0.00000, 2334.78, -3.69265, 0, 0, 1.06207, -3.69219, 1.06207, 176.308
243, 0.00000, 2333.58, -3.71663, 0, 0, 1.04149, -3.71611, 1.04149, 176.284
244, 0.00000, 2333.28, -3.72276, 0, 0, 1.03428, -3.72262, 1.03428, 176.277
245, 0.00000, 2326.55, -3.86032, 0, 0, 1.16398, -3.85822, 1.16398, 176.142
246, 0.00000, 2324.6, -3.90042, 0, 0, 1.43472, -3.9, 1.43472, 176.1
247, 0.00000, 2303.58, -4.32978, 0, 0, 1.76172, -4.32957, 1.76172, 175.67
248, 0.00000, 2308.12, -4.24225, 0, 0, 1.59879, -4.24206, 1.59879, 175.758
249, 0.00000, 2296.94, -4.47181, 0, 0, 1.4215, -4.47163, 1.4215, 175.528
250, 0.00000, 2302.15, -4.36415, 0, 0, 1.25512, -4.36423, 1.25512, 175.636
251, 0.00000, 2297.1, -4.4666, 0, 0, 1.07857, -4.46641, 1.07857, 175.534
252, 0.00000, 2293.65, -4.53626, 0, 0, 1.08606, -4.53633, 1.08606, 175.464
253, 0.00000, 2291.24, -4.58469, 0, 0, 1.07826, -4.58846, 1.07826, 175.412
254, 0.00000, 2292.64, -4.55694, 0, 0, 1.05089, -4.55616, 1.05089, 175.444
255, 0.00000, 2293.11, -4.54743, 0, 0, 1.04151, -4.54664, 1.04151, 175.453
256, 0.00000, 2292.77, -4.55433, 0, 0, 1.12252, -4.55421, 1.12252, 175.446
257, 0.00000, 2292.3, -4.56423, 0, 0, 1.57132, -4.56441, 1.57132, 175.436
258, 0.00000, 2294.38, -4.52185, 0, 0, 2.19701, -4.51912, 2.19701, 175.481
259, 0.00000, 2294.49, -4.52059, 0, 0, 2.53494, -4.52059, 2.53494, 175.479
260, 0.00000, 2297.69, -4.45621, 0, 0, 2.47246, -4.45628, 2.47246, 175.544
261, 0.00000, 2305.41, -4.30122, 0, 0, 2.43917, -4.30133, 2.43917, 175.699
262, 0.00000, 2311.99, -4.16621, 0, 0, 2.12211, -4.16631, 2.12211, 175.834
263, 0.00000, 2327.81, -3.83621, 0, 0, 1.74234, -3.83638, 1.74234, 176.164
264, 0.00000, 2326.76, -3.8588, 0, 0, 1.44242, -3.85766, 1.44242, 176.142
265, 0.00000, 2335.45, -3.67792, 0, 0, 1.16091, -3.67803, 1.16091, 176.322
266, 0.00000, 2334.78, -3.69265, 0, 0, 1.06207, -3.69219, 1.06207, 176.308
267, 0.00000, 2333.58, -3.71663, 0, 0, 1.04149, -3.71611, 1.04149, 176.284
268, 0.00000, 2333.28, -3.72276, 0, 0, 1.03428, -3.72262, 1.03428, 176.277
269, 0.00000, 2326.55, -3.86032, 0, 0, 1.16398, -3.85822, 1.16398, 176.142
