hour, t(sec), V1, VAngle1, V2, VAngle2, I1, IAngle1, I2, IAngle2
1, 0.00000, 2335.02, 115.714, 0, 0, 8.12782, 115.714, 8.12782, -64.2863
2, 0.00000, 2335.1, 115.716, 0, 0, 7.43348, 115.716, 7.43348, -64.2837
3, 0.00000, 2335.84, 115.731, 0, 0, 7.28347, 115.73, 7.28347, -64.2698
4, 0.00000, 2335.99, 115.734, 0, 0, 7.23159, 115.734, 7.23159, -64.2664
5, 0.00000, 2329.05, 115.598, 0, 0, 8.13921, 115.6, 8.13921, -64.4002
6, 0.00000, 2324.07, 115.5, 0, 0, 10.0452, 115.501, 10.0452, -64.499
7, 0.00000, 2313.87, 115.03, 0, 0, 12.2773, 115.03, 12.2773, -64.9701
8, 0.00000, 2318.72, 115.125, 0, 0, 11.1406, 115.122, 11.1406, -64.8784
9, 0.00000, 2305.25, 114.875, 0, 0, 9.9147, 114.875, 9.9147, -65.1248
10, 0.00000, 2312.83, 115.017, 0, 0, 8.7453, 115.016, 8.7453, -64.9835
11, 0.00000, 2320.98, 115.174, 0, 0, 7.47235, 115.174, 7.47235, -64.8262
12, 0.00000, 2321.29, 115.181, 0, 0, 7.51192, 115.181, 7.51192, -64.8186
13, 0.00000, 2322.14, 115.199, 0, 0, 7.44745, 115.199, 7.44745, -64.801
14, 0.00000, 2323.82, 115.231, 0, 0, 7.25763, 115.23, 7.25763, -64.7697
15, 0.00000, 2323.67, 115.228, 0, 0, 7.19465, 115.228, 7.19465, -64.7716
16, 0.00000, 2322.3, 115.201, 0, 0, 7.75762, 115.202, 7.75762, -64.7977
17, 0.00000, 2317.67, 115.111, 0, 0, 10.8785, 115.113, 10.8785, -64.8868
18, 0.00000, 2308.22, 114.926, 0, 0, 15.2855, 114.93, 15.2855, -65.0698
19, 0.00000, 2299.25, 114.757, 0, 0, 17.7078, 114.757, 17.7078, -65.2427
20, 0.00000, 2299.89, 114.769, 0, 0, 17.2906, 114.769, 17.2906, -65.231
21, 0.00000, 2304.71, 114.859, 0, 0, 17.0793, 114.859, 17.0793, -65.1406
22, 0.00000, 2311.45, 114.986, 0, 0, 14.8582, 114.986, 14.8582, -65.014
23, 0.00000, 2328.61, 115.308, 0, 0, 12.1922, 115.308, 12.1922, -64.6922
24, 0.00000, 2340.74, 115.543, 0, 0, 10.037, 115.542, 10.037, -64.4576
25, 0.00000, 2349.87, 115.719, 0, 0, 8.07644, 115.719, 8.07644, -64.2813
26, 0.00000, 2349.95, 115.722, 0, 0, 7.38652, 115.722, 7.38652, -64.2784
27, 0.00000, 2350.68, 115.736, 0, 0, 7.23748, 115.735, 7.23748, -64.2651
28, 0.00000, 2350.84, 115.739, 0, 0, 7.18593, 115.739, 7.18593, -64.2614
29, 0.00000, 2343.86, 115.603, 0, 0, 8.08767, 115.61, 8.08767, -64.3896
30, 0.00000, 2338.87, 115.506, 0, 0, 9.98151, 115.51, 9.98151, -64.4897
31, 0.00000, 2313.87, 115.03, 0, 0, 12.2772, 115.03, 12.2772, -64.9698
32, 0.00000, 2318.72, 115.125, 0, 0, 11.1406, 115.122, 11.1406, -64.8784
33, 0.00000, 2305.25, 114.875, 0, 0, 9.9147, 114.875, 9.9147, -65.1248
34, 0.00000, 2312.83, 115.017, 0, 0, 8.7453, 115.016, 8.7453, -64.9835
35, 0.00000, 2320.98, 115.174, 0, 0, 7.47235, 115.174, 7.47235, -64.8262
36, 0.00000, 2321.29, 115.181, 0, 0, 7.51192, 115.181, 7.51192, -64.8186
37, 0.00000, 2322.14, 115.199, 0, 0, 7.44745, 115.199, 7.44745, -64.801
38, 0.00000, 2323.82, 115.231, 0, 0, 7.25763, 115.23, 7.25763, -64.7697
39, 0.00000, 2323.67, 115.228, 0, 0, 7.19465, 115.228, 7.19465, -64.7716
40, 0.00000, 2322.3, 115.201, 0, 0, 7.75762, 115.202, 7.75762, -64.7977
41, 0.00000, 2317.67, 115.111, 0, 0, 10.8785, 115.113, 10.8785, -64.8868
42, 0.00000, 2308.22, 114.926, 0, 0, 15.2855, 114.93, 15.2855, -65.0698
43, 0.00000, 2299.25, 114.757, 0, 0, 17.7078, 114.757, 17.7078, -65.2427
44, 0.00000, 2299.89, 114.769, 0, 0, 17.2906, 114.769, 17.2906, -65.231
45, 0.00000, 2304.71, 114.859, 0, 0, 17.0793, 114.859, 17.0793, -65.1406
46, 0.00000, 2311.45, 114.986, 0, 0, 14.8582, 114.986, 14.8582, -65.014
47, 0.00000, 2328.61, 115.308, 0, 0, 12.1922, 115.308, 12.1922, -64.6922
48, 0.00000, 2340.74, 115.543, 0, 0, 10.037, 115.542, 10.037, -64.4576
49, 0.00000, 2349.87, 115.719, 0, 0, 8.07644, 115.719, 8.07644, -64.2813
50, 0.00000, 2349.95, 115.722, 0, 0, 7.38652, 115.722, 7.38652, -64.2784
51, 0.00000, 2350.68, 115.736, 0, 0, 7.23748, 115.735, 7.23748, -64.2651
52, 0.00000, 2350.84, 115.739, 0, 0, 7.18593, 115.739, 7.18593, -64.2614
53, 0.00000, 2343.86, 115.603, 0, 0, 8.08767, 115.61, 8.08767, -64.3896
54, 0.00000, 2338.87, 115.506, 0, 0, 9.98151, 115.51, 9.98151, -64.4897
55, 0.00000, 2313.87, 115.03, 0, 0, 12.2772, 115.03, 12.2772, -64.9698
56, 0.00000, 2318.72, 115.125, 0, 0, 11.1406, 115.122, 11.1406, -64.8784
57, 0.00000, 2305.25, 114.875, 0, 0, 9.9147, 114.875, 9.9147, -65.1248
58, 0.00000, 2312.83, 115.017, 0, 0, 8.7453, 115.016, 8.7453, -64.9835
59, 0.00000, 2320.98, 115.174, 0, 0, 7.47235, 115.174, 7.47235, -64.8262
60, 0.00000, 2321.29, 115.181, 0, 0, 7.51192, 115.181, 7.51192, -64.8186
61, 0.00000, 2322.14, 115.199, 0, 0, 7.44745, 115.199, 7.44745, -64.801
62, 0.00000, 2323.82, 115.231, 0, 0, 7.25763, 115.23, 7.25763, -64.7697
63, 0.00000, 2323.67, 115.228, 0, 0, 7.19465, 115.228, 7.19465, -64.7716
64, 0.00000, 2322.3, 115.201, 0, 0, 7.75762, 115.202, 7.75762, -64.7977
65, 0.00000, 2317.67, 115.111, 0, 0, 10.8785, 115.113, 10.8785, -64.8868
66, 0.00000, 2308.22, 114.926, 0, 0, 15.2855, 114.93, 15.2855, -65.0698
67, 0.00000, 2299.25, 114.757, 0, 0, 17.7078, 114.757, 17.7078, -65.2427
68, 0.00000, 2299.89, 114.769, 0, 0, 17.2906, 114.769, 17.2906, -65.231
69, 0.00000, 2304.71, 114.859, 0, 0, 17.0793, 114.859, 17.0793, -65.1406
70, 0.00000, 2311.45, 114.986, 0, 0, 14.8582, 114.986, 14.8582, -65.014
71, 0.00000, 2328.61, 115.308, 0, 0, 12.1922, 115.308, 12.1922, -64.6922
72, 0.00000, 2340.74, 115.543, 0, 0, 10.037, 115.542, 10.037, -64.4576
73, 0.00000, 2349.87, 115.719, 0, 0, 8.07644, 115.719, 8.07644, -64.2813
74, 0.00000, 2349.95, 115.722, 0, 0, 7.38652, 115.722, 7.38652, -64.2784
75, 0.00000, 2350.68, 115.736, 0, 0, 7.23748, 115.735, 7.23748, -64.2651
76, 0.00000, 2350.84, 115.739, 0, 0, 7.18593, 115.739, 7.18593, -64.2614
77, 0.00000, 2343.86, 115.603, 0, 0, 8.08767, 115.61, 8.08767, -64.3896
78, 0.00000, 2338.87, 115.506, 0, 0, 9.98151, 115.51, 9.98151, -64.4897
79, 0.00000, 2313.87, 115.03, 0, 0, 12.2772, 115.03, 12.2772, -64.9698
80, 0.00000, 2318.72, 115.125, 0, 0, 11.1406, 115.122, 11.1406, -64.8784
81, 0.00000, 2305.25, 114.875, 0, 0, 9.9147, 114.875, 9.9147, -65.1248
82, 0.00000, 2312.83, 115.017, 0, 0, 8.7453, 115.016, 8.7453, -64.9835
83, 0.00000, 2320.98, 115.174, 0, 0, 7.47235, 115.174, 7.47235, -64.8262
84, 0.00000, 2321.29, 115.181, 0, 0, 7.51192, 115.181, 7.51192, -64.8186
85, 0.00000, 2322.14, 115.199, 0, 0, 7.44745, 115.199, 7.44745, -64.801
86, 0.00000, 2323.82, 115.231, 0, 0, 7.25763, 115.23, 7.25763, -64.7697
87, 0.00000, 2323.67, 115.228, 0, 0, 7.19465, 115.228, 7.19465, -64.7716
88, 0.00000, 2322.3, 115.201, 0, 0, 7.75762, 115.202, 7.75762, -64.7977
89, 0.00000, 2317.67, 115.111, 0, 0, 10.8785, 115.113, 10.8785, -64.8868
90, 0.00000, 2308.22, 114.926, 0, 0, 15.2855, 114.93, 15.2855, -65.0698
91, 0.00000, 2299.25, 114.757, 0, 0, 17.7078, 114.757, 17.7078, -65.2427
92, 0.00000, 2299.89, 114.769, 0, 0, 17.2906, 114.769, 17.2906, -65.231
93, 0.00000, 2304.71, 114.859, 0, 0, 17.0793, 114.859, 17.0793, -65.1406
94, 0.00000, 2311.45, 114.986, 0, 0, 14.8582, 114.986, 14.8582, -65.014
95, 0.00000, 2328.61, 115.308, 0, 0, 12.1922, 115.308, 12.1922, -64.6922
96, 0.00000, 2340.74, 115.543, 0, 0, 10.037, 115.542, 10.037, -64.4576
97, 0.00000, 2349.87, 115.719, 0, 0, 8.07644, 115.719, 8.07644, -64.2813
98, 0.00000, 2349.95, 115.722, 0, 0, 7.38652, 115.722, 7.38652, -64.2784
99, 0.00000, 2350.68, 115.736, 0, 0, 7.23748, 115.735, 7.23748, -64.2651
100, 0.00000, 2350.84, 115.739, 0, 0, 7.18593, 115.739, 7.18593, -64.2614
101, 0.00000, 2343.86, 115.603, 0, 0, 8.08767, 115.61, 8.08767, -64.3896
102, 0.00000, 2338.87, 115.506, 0, 0, 9.98151, 115.51, 9.98151, -64.4897
103, 0.00000, 2313.87, 115.03, 0, 0, 12.2772, 115.03, 12.2772, -64.9698
104, 0.00000, 2318.72, 115.125, 0, 0, 11.1406, 115.122, 11.1406, -64.8784
105, 0.00000, 2305.25, 114.875, 0, 0, 9.9147, 114.875, 9.9147, -65.1248
106, 0.00000, 2312.83, 115.017, 0, 0, 8.7453, 115.016, 8.7453, -64.9835
107, 0.00000, 2320.98, 115.174, 0, 0, 7.47235, 115.174, 7.47235, -64.8262
108, 0.00000, 2321.29, 115.181, 0, 0, 7.51192, 115.181, 7.51192, -64.8186
109, 0.00000, 2322.14, 115.199, 0, 0, 7.44745, 115.199, 7.44745, -64.801
110, 0.00000, 2323.82, 115.231, 0, 0, 7.25763, 115.23, 7.25763, -64.7697
111, 0.00000, 2323.67, 115.228, 0, 0, 7.19465, 115.228, 7.19465, -64.7716
112, 0.00000, 2322.3, 115.201, 0, 0, 7.75762, 115.202, 7.75762, -64.7977
113, 0.00000, 2317.67, 115.111, 0, 0, 10.8785, 115.113, 10.8785, -64.8868
114, 0.00000, 2308.22, 114.926, 0, 0, 15.2855, 114.93, 15.2855, -65.0698
115, 0.00000, 2299.25, 114.757, 0, 0, 17.7078, 114.757, 17.7078, -65.2427
116, 0.00000, 2299.89, 114.769, 0, 0, 17.2906, 114.769, 17.2906, -65.231
117, 0.00000, 2304.71, 114.859, 0, 0, 17.0793, 114.859, 17.0793, -65.1406
118, 0.00000, 2311.45, 114.986, 0, 0, 14.8582, 114.986, 14.8582, -65.014
119, 0.00000, 2328.61, 115.308, 0, 0, 12.1922, 115.308, 12.1922, -64.6922
120, 0.00000, 2340.74, 115.543, 0, 0, 10.037, 115.542, 10.037, -64.4576
121, 0.00000, 2349.87, 115.719, 0, 0, 8.07644, 115.719, 8.07644, -64.2813
122, 0.00000, 2349.95, 115.722, 0, 0, 7.38652, 115.722, 7.38652, -64.2784
123, 0.00000, 2350.68, 115.736, 0, 0, 7.23748, 115.735, 7.23748, -64.2651
124, 0.00000, 2350.84, 115.739, 0, 0, 7.18593, 115.739, 7.18593, -64.2614
125, 0.00000, 2343.86, 115.603, 0, 0, 8.08767, 115.61, 8.08767, -64.3896
126, 0.00000, 2338.87, 115.506, 0, 0, 9.98151, 115.51, 9.98151, -64.4897
127, 0.00000, 2313.87, 115.03, 0, 0, 12.2772, 115.03, 12.2772, -64.9698
128, 0.00000, 2318.72, 115.125, 0, 0, 11.1406, 115.122, 11.1406, -64.8784
129, 0.00000, 2305.25, 114.875, 0, 0, 9.9147, 114.875, 9.9147, -65.1248
130, 0.00000, 2312.83, 115.017, 0, 0, 8.7453, 115.016, 8.7453, -64.9835
131, 0.00000, 2320.98, 115.174, 0, 0, 7.47235, 115.174, 7.47235, -64.8262
132, 0.00000, 2321.29, 115.181, 0, 0, 7.51192, 115.181, 7.51192, -64.8186
133, 0.00000, 2322.14, 115.199, 0, 0, 7.44745, 115.199, 7.44745, -64.801
134, 0.00000, 2323.82, 115.231, 0, 0, 7.25763, 115.23, 7.25763, -64.7697
135, 0.00000, 2323.67, 115.228, 0, 0, 7.19465, 115.228, 7.19465, -64.7716
136, 0.00000, 2322.3, 115.201, 0, 0, 7.75762, 115.202, 7.75762, -64.7977
137, 0.00000, 2317.67, 115.111, 0, 0, 10.8785, 115.113, 10.8785, -64.8868
138, 0.00000, 2308.22, 114.926, 0, 0, 15.2855, 114.93, 15.2855, -65.0698
139, 0.00000, 2299.25, 114.757, 0, 0, 17.7078, 114.757, 17.7078, -65.2427
140, 0.00000, 2299.89, 114.769, 0, 0, 17.2906, 114.769, 17.2906, -65.231
141, 0.00000, 2304.71, 114.859, 0, 0, 17.0793, 114.859, 17.0793, -65.1406
142, 0.00000, 2311.45, 114.986, 0, 0, 14.8582, 114.986, 14.8582, -65.014
143, 0.00000, 2328.61, 115.308, 0, 0, 12.1922, 115.308, 12.1922, -64.6922
144, 0.00000, 2340.74, 115.543, 0, 0, 10.037, 115.542, 10.037, -64.4576
145, 0.00000, 2349.87, 115.719, 0, 0, 8.07644, 115.719, 8.07644, -64.2813
146, 0.00000, 2349.95, 115.722, 0, 0, 7.38652, 115.722, 7.38652, -64.2784
147, 0.00000, 2350.68, 115.736, 0, 0, 7.23748, 115.735, 7.23748, -64.2651
148, 0.00000, 2350.84, 115.739, 0, 0, 7.18593, 115.739, 7.18593, -64.2614
149, 0.00000, 2343.86, 115.603, 0, 0, 8.08767, 115.61, 8.08767, -64.3896
150, 0.00000, 2338.87, 115.506, 0, 0, 9.98151, 115.51, 9.98151, -64.4897
151, 0.00000, 2313.87, 115.03, 0, 0, 12.2772, 115.03, 12.2772, -64.9698
152, 0.00000, 2318.72, 115.125, 0, 0, 11.1406, 115.122, 11.1406, -64.8784
153, 0.00000, 2305.25, 114.875, 0, 0, 9.9147, 114.875, 9.9147, -65.1248
154, 0.00000, 2312.83, 115.017, 0, 0, 8.7453, 115.016, 8.7453, -64.9835
155, 0.00000, 2320.98, 115.174, 0, 0, 7.47235, 115.174, 7.47235, -64.8262
156, 0.00000, 2321.29, 115.181, 0, 0, 7.51192, 115.181, 7.51192, -64.8186
157, 0.00000, 2322.14, 115.199, 0, 0, 7.44745, 115.199, 7.44745, -64.801
158, 0.00000, 2323.82, 115.231, 0, 0, 7.25763, 115.23, 7.25763, -64.7697
159, 0.00000, 2323.67, 115.228, 0, 0, 7.19465, 115.228, 7.19465, -64.7716
160, 0.00000, 2322.3, 115.201, 0, 0, 7.75762, 115.202, 7.75762, -64.7977
161, 0.00000, 2317.67, 115.111, 0, 0, 10.8785, 115.113, 10.8785, -64.8868
162, 0.00000, 2308.22, 114.926, 0, 0, 15.2855, 114.93, 15.2855, -65.0698
163, 0.00000, 2299.25, 114.757, 0, 0, 17.7078, 114.757, 17.7078, -65.2427
164, 0.00000, 2299.89, 114.769, 0, 0, 17.2906, 114.769, 17.2906, -65.231
165, 0.00000, 2304.71, 114.859, 0, 0, 17.0793, 114.859, 17.0793, -65.1406
166, 0.00000, 2311.45, 114.986, 0, 0, 14.8582, 114.986, 14.8582, -65.014
167, 0.00000, 2328.61, 115.308, 0, 0, 12.1922, 115.308, 12.1922, -64.6922
168, 0.00000, 2340.74, 115.543, 0, 0, 10.037, 115.542, 10.037, -64.4576
169, 0.00000, 2349.87, 115.719, 0, 0, 8.07644, 115.719, 8.07644, -64.2813
170, 0.00000, 2349.95, 115.722, 0, 0, 7.38652, 115.722, 7.38652, -64.2784
171, 0.00000, 2350.68, 115.736, 0, 0, 7.23748, 115.735, 7.23748, -64.2651
172, 0.00000, 2350.84, 115.739, 0, 0, 7.18593, 115.739, 7.18593, -64.2614
173, 0.00000, 2343.86, 115.603, 0, 0, 8.08767, 115.61, 8.08767, -64.3896
174, 0.00000, 2338.87, 115.506, 0, 0, 9.98151, 115.51, 9.98151, -64.4897
175, 0.00000, 2313.87, 115.03, 0, 0, 12.2772, 115.03, 12.2772, -64.9698
176, 0.00000, 2318.72, 115.125, 0, 0, 11.1406, 115.122, 11.1406, -64.8784
177, 0.00000, 2305.25, 114.875, 0, 0, 9.9147, 114.875, 9.9147, -65.1248
178, 0.00000, 2312.83, 115.017, 0, 0, 8.7453, 115.016, 8.7453, -64.9835
179, 0.00000, 2320.98, 115.174, 0, 0, 7.47235, 115.174, 7.47235, -64.8262
180, 0.00000, 2321.29, 115.181, 0, 0, 7.51192, 115.181, 7.51192, -64.8186
181, 0.00000, 2322.14, 115.199, 0, 0, 7.44745, 115.199, 7.44745, -64.801
182, 0.00000, 2323.82, 115.231, 0, 0, 7.25763, 115.23, 7.25763, -64.7697
183, 0.00000, 2323.67, 115.228, 0, 0, 7.19465, 115.228, 7.19465, -64.7716
184, 0.00000, 2322.3, 115.201, 0, 0, 7.75762, 115.202, 7.75762, -64.7977
185, 0.00000, 2317.67, 115.111, 0, 0, 10.8785, 115.113, 10.8785, -64.8868
186, 0.00000, 2308.22, 114.926, 0, 0, 15.2855, 114.93, 15.2855, -65.0698
187, 0.00000, 2299.25, 114.757, 0, 0, 17.7078, 114.757, 17.7078, -65.2427
188, 0.00000, 2299.89, 114.769, 0, 0, 17.2906, 114.769, 17.2906, -65.231
189, 0.00000, 2304.71, 114.859, 0, 0, 17.0793, 114.859, 17.0793, -65.1406
190, 0.00000, 2311.45, 114.986, 0, 0, 14.8582, 114.986, 14.8582, -65.014
191, 0.00000, 2328.61, 115.308, 0, 0, 12.1922, 115.308, 12.1922, -64.6922
192, 0.00000, 2340.74, 115.543, 0, 0, 10.037, 115.542, 10.037, -64.4576
193, 0.00000, 2349.87, 115.719, 0, 0, 8.07644, 115.719, 8.07644, -64.2813
194, 0.00000, 2349.95, 115.722, 0, 0, 7.38652, 115.722, 7.38652, -64.2784
195, 0.00000, 2350.68, 115.736, 0, 0, 7.23748, 115.735, 7.23748, -64.2651
196, 0.00000, 2350.84, 115.739, 0, 0, 7.18593, 115.739, 7.18593, -64.2614
197, 0.00000, 2343.86, 115.603, 0, 0, 8.08767, 115.61, 8.08767, -64.3896
198, 0.00000, 2338.87, 115.506, 0, 0, 9.98151, 115.51, 9.98151, -64.4897
199, 0.00000, 2313.87, 115.03, 0, 0, 12.2772, 115.03, 12.2772, -64.9698
200, 0.00000, 2318.72, 115.125, 0, 0, 11.1406, 115.122, 11.1406, -64.8784
201, 0.00000, 2305.25, 114.875, 0, 0, 9.9147, 114.875, 9.9147, -65.1248
202, 0.00000, 2312.83, 115.017, 0, 0, 8.7453, 115.016, 8.7453, -64.9835
203, 0.00000, 2320.98, 115.174, 0, 0, 7.47235, 115.174, 7.47235, -64.8262
204, 0.00000, 2321.29, 115.181, 0, 0, 7.51192, 115.181, 7.51192, -64.8186
205, 0.00000, 2322.14, 115.199, 0, 0, 7.44745, 115.199, 7.44745, -64.801
206, 0.00000, 2323.82, 115.231, 0, 0, 7.25763, 115.23, 7.25763, -64.7697
207, 0.00000, 2323.67, 115.228, 0, 0, 7.19465, 115.228, 7.19465, -64.7716
208, 0.00000, 2322.3, 115.201, 0, 0, 7.75762, 115.202, 7.75762, -64.7977
209, 0.00000, 2317.67, 115.111, 0, 0, 10.8785, 115.113, 10.8785, -64.8868
210, 0.00000, 2308.22, 114.926, 0, 0, 15.2855, 114.93, 15.2855, -65.0698
211, 0.00000, 2299.25, 114.757, 0, 0, 17.7078, 114.757, 17.7078, -65.2427
212, 0.00000, 2299.89, 114.769, 0, 0, 17.2906, 114.769, 17.2906, -65.231
213, 0.00000, 2304.71, 114.859, 0, 0, 17.0793, 114.859, 17.0793, -65.1406
214, 0.00000, 2311.45, 114.986, 0, 0, 14.8582, 114.986, 14.8582, -65.014
215, 0.00000, 2328.61, 115.308, 0, 0, 12.1922, 115.308, 12.1922, -64.6922
216, 0.00000, 2340.74, 115.543, 0, 0, 10.037, 115.542, 10.037, -64.4576
217, 0.00000, 2349.87, 115.719, 0, 0, 8.07644, 115.719, 8.07644, -64.2813
218, 0.00000, 2349.95, 115.722, 0, 0, 7.38652, 115.722, 7.38652, -64.2784
219, 0.00000, 2350.68, 115.736, 0, 0, 7.23748, 115.735, 7.23748, -64.2651
220, 0.00000, 2350.84, 115.739, 0, 0, 7.18593, 115.739, 7.18593, -64.2614
221, 0.00000, 2343.86, 115.603, 0, 0, 8.08767, 115.61, 8.08767, -64.3896
222, 0.00000, 2338.87, 115.506, 0, 0, 9.98151, 115.51, 9.98151, -64.4897
223, 0.00000, 2313.87, 115.03, 0, 0, 12.2772, 115.03, 12.2772, -64.9698
224, 0.00000, 2318.72, 115.125, 0, 0, 11.1406, 115.122, 11.1406, -64.8784
225, 0.00000, 2305.25, 114.875, 0, 0, 9.9147, 114.875, 9.9147, -65.1248
226, 0.00000, 2312.83, 115.017, 0, 0, 8.7453, 115.016, 8.7453, -64.9835
227, 0.00000, 2320.98, 115.174, 0, 0, 7.47235, 115.174, 7.47235, -64.8262
228, 0.00000, 2321.29, 115.181, 0, 0, 7.51192, 115.181, 7.51192, -64.8186
229, 0.00000, 2322.14, 115.199, 0, 0, 7.44745, 115.199, 7.44745, -64.801
230, 0.00000, 2323.82, 115.231, 0, 0, 7.25763, 115.23, 7.25763, -64.7697
231, 0.00000, 2323.67, 115.228, 0, 0, 7.19465, 115.228, 7.19465, -64.7716
232, 0.00000, 2322.3, 115.201, 0, 0, 7.75762, 115.202, 7.75762, -64.7977
233, 0.00000, 2317.67, 115.111, 0, 0, 10.8785, 115.113, 10.8785, -64.8868
234, 0.00000, 2308.22, 114.926, 0, 0, 15.2855, 114.93, 15.2855, -65.0698
235, 0.00000, 2299.25, 114.757, 0, 0, 17.7078, 114.757, 17.7078, -65.2427
236, 0.00000, 2299.89, 114.769, 0, 0, 17.2906, 114.769, 17.2906, -65.231
237, 0.00000, 2304.71, 114.859, 0, 0, 17.0793, 114.859, 17.0793, -65.1406
238, 0.00000, 2311.45, 114.986, 0, 0, 14.8582, 114.986, 14.8582, -65.014
239, 0.00000, 2328.61, 115.308, 0, 0, 12.1922, 115.308, 12.1922, -64.6922
240, 0.00000, 2340.74, 115.543, 0, 0, 10.037, 115.542, 10.037, -64.4576
241, 0.00000, 2349.87, 115.719, 0, 0, 8.07644, 115.719, 8.07644, -64.2813
242, 0.00000, 2349.95, 115.722, 0, 0, 7.38652, 115.722, 7.38652, -64.2784
243, 0.00000, 2350.68, 115.736, 0, 0, 7.23748, 115.735, 7.23748, -64.2651
244, 0.00000, 2350.84, 115.739, 0, 0, 7.18593, 115.739, 7.18593, -64.2614
245, 0.00000, 2343.86, 115.603, 0, 0, 8.08767, 115.61, 8.08767, -64.3896
246, 0.00000, 2338.87, 115.506, 0, 0, 9.98151, 115.51, 9.98151, -64.4897
247, 0.00000, 2313.87, 115.03, 0, 0, 12.2772, 115.03, 12.2772, -64.9698
248, 0.00000, 2318.72, 115.125, 0, 0, 11.1406, 115.122, 11.1406, -64.8784
249, 0.00000, 2305.25, 114.875, 0, 0, 9.9147, 114.875, 9.9147, -65.1248
250, 0.00000, 2312.83, 115.017, 0, 0, 8.7453, 115.016, 8.7453, -64.9835
251, 0.00000, 2320.98, 115.174, 0, 0, 7.47235, 115.174, 7.47235, -64.8262
252, 0.00000, 2321.29, 115.181, 0, 0, 7.51192, 115.181, 7.51192, -64.8186
253, 0.00000, 2322.14, 115.199, 0, 0, 7.44745, 115.199, 7.44745, -64.801
254, 0.00000, 2323.82, 115.231, 0, 0, 7.25763, 115.23, 7.25763, -64.7697
255, 0.00000, 2323.67, 115.228, 0, 0, 7.19465, 115.228, 7.19465, -64.7716
256, 0.00000, 2322.3, 115.201, 0, 0, 7.75762, 115.202, 7.75762, -64.7977
257, 0.00000, 2317.67, 115.111, 0, 0, 10.8785, 115.113, 10.8785, -64.8868
258, 0.00000, 2308.22, 114.926, 0, 0, 15.2855, 114.93, 15.2855, -65.0698
259, 0.00000, 2299.25, 114.757, 0, 0, 17.7078, 114.757, 17.7078, -65.2427
260, 0.00000, 2299.89, 114.769, 0, 0, 17.2906, 114.769, 17.2906, -65.231
261, 0.00000, 2304.71, 114.859, 0, 0, 17.0793, 114.859, 17.0793, -65.1406
262, 0.00000, 2311.45, 114.986, 0, 0, 14.8582, 114.986, 14.8582, -65.014
263, 0.00000, 2328.61, 115.308, 0, 0, 12.1922, 115.308, 12.1922, -64.6922
264, 0.00000, 2340.74, 115.543, 0, 0, 10.037, 115.542, 10.037, -64.4576
265, 0.00000, 2349.87, 115.719, 0, 0, 8.07644, 115.719, 8.07644, -64.2813
266, 0.00000, 2349.95, 115.722, 0, 0, 7.38652, 115.722, 7.38652, -64.2784
267, 0.00000, 2350.68, 115.736, 0, 0, 7.23748, 115.735, 7.23748, -64.2651
268, 0.00000, 2350.84, 115.739, 0, 0, 7.18593, 115.739, 7.18593, -64.2614
269, 0.00000, 2343.86, 115.603, 0, 0, 8.08767, 115.61, 8.08767, -64.3896
270, 0.00000, 2338.87, 115.506, 0, 0, 9.98151, 115.51, 9.98151, -64.4897
271, 0.00000, 2313.87, 115.03, 0, 0, 12.2772, 115.03, 12.2772, -64.9698
272, 0.00000, 2318.72, 115.125, 0, 0, 11.1406, 115.122, 11.1406, -64.8784
273, 0.00000, 2305.25, 114.875, 0, 0, 9.9147, 114.875, 9.9147, -65.1248
