hour, t(sec), V1, VAngle1, V2, VAngle2, V3, VAngle3, V4, VAngle4, I1, IAngle1, I2, IAngle2, I3, IAngle3, I4, IAngle4
1, 0.00000, 2335.5, -4.54602, 2339.01, -124.61, 2357.34, 114.347, 0, 0, 15.9534, -4.55031, 15.9774, -124.614, 16.1023, 114.341, 0.318854, -126.65
2, 0.00000, 2334.93, -4.55944, 2339.37, -124.601, 2357.42, 114.347, 0, 0, 14.588, -4.55895, 14.6156, -124.601, 14.7285, 114.347, 0.284969, -126.688
3, 0.00000, 2333.25, -4.59038, 2338.58, -124.633, 2358.32, 114.373, 0, 0, 14.2878, -4.58978, 14.3203, -124.633, 14.4411, 114.372, 0.269724, -122.3
4, 0.00000, 2332.85, -4.59802, 2338.42, -124.64, 2358.52, 114.378, 0, 0, 14.1845, -4.59786, 14.2183, -124.64, 14.3405, 114.378, 0.265467, -121.242
5, 0.00000, 2325.29, -4.77661, 2331.92, -124.803, 2350.54, 114.189, 0, 0, 15.8666, -4.77441, 15.9115, -124.802, 16.0389, 114.192, 0.290735, -122.836
6, 0.00000, 2323.29, -4.83291, 2328.92, -124.862, 2344.78, 114.051, 0, 0, 19.5228, -4.83245, 19.5702, -124.862, 19.7038, 114.052, 0.374563, -129.156
7, 0.00000, 2300.94, -5.37842, 2309.83, -125.302, 2316.06, 113.363, 0, 0, 23.5271, -5.37824, 23.6178, -125.302, 23.6815, 113.363, 0.463686, -145.914
8, 0.00000, 2306.23, -5.25901, 2320.21, -125.05, 2321.44, 113.489, 0, 0, 21.4415, -5.25866, 21.5714, -125.049, 21.5827, 113.49, 0.398325, -154.831
9, 0.00000, 2295.16, -5.53936, 2312.72, -125.206, 2305.85, 113.11, 0, 0, 18.8813, -5.53921, 19.0257, -125.206, 18.9692, 113.11, 0.387392, -168.274
10, 0.00000, 2300.03, -5.41225, 2316.41, -125.142, 2314.65, 113.322, 0, 0, 16.7445, -5.41232, 16.8638, -125.142, 16.8509, 113.322, 0.309975, -160.259
11, 0.00000, 2293.69, -5.51025, 2318.34, -125.148, 2324.25, 113.566, 0, 0, 14.3181, -5.51008, 14.4719, -125.148, 14.5088, 113.566, 0.150293, -142.871
12, 0.00000, 2289.95, -5.58372, 2317.92, -125.167, 2324.66, 113.58, 0, 0, 14.3723, -5.58379, 14.5479, -125.167, 14.5902, 113.58, 0.119927, -137.547
13, 0.00000, 2287.63, -5.62647, 2318.82, -125.146, 2325.65, 113.606, 0, 0, 14.2396, -5.63043, 14.4338, -125.146, 14.4763, 113.606, 0.0923463, -134.746
14, 0.00000, 2289.24, -5.58831, 2320.45, -125.105, 2327.56, 113.65, 0, 0, 13.8965, -5.58744, 14.0859, -125.105, 14.129, 113.651, 0.0902903, -133.398
15, 0.00000, 2289.67, -5.58059, 2320.19, -125.112, 2327.4, 113.646, 0, 0, 13.7778, -5.57977, 13.9614, -125.112, 14.0048, 113.646, 0.0943876, -133.477
16, 0.00000, 2289.21, -5.59402, 2319.09, -125.138, 2325.82, 113.609, 0, 0, 14.8442, -5.59391, 15.038, -125.138, 15.0817, 113.609, 0.108293, -136.321
17, 0.00000, 2288.93, -5.61156, 2317.18, -125.162, 2320.44, 113.481, 0, 0, 20.7724, -5.61163, 21.0288, -125.163, 21.0589, 113.48, 0.195222, -151.716
18, 0.00000, 2291.69, -5.58453, 2310.3, -125.279, 2309.49, 113.214, 0, 0, 29.1046, -5.5809, 29.3414, -125.281, 29.3332, 113.21, 0.492043, -158.982
19, 0.00000, 2293.39, -5.5819, 2305.9, -125.321, 2299.01, 112.953, 0, 0, 33.6086, -5.58193, 33.7919, -125.321, 33.6909, 112.953, 0.794736, -166.707
20, 0.00000, 2297.04, -5.50748, 2307.35, -125.277, 2299.68, 112.965, 0, 0, 32.878, -5.50754, 33.0257, -125.277, 32.9159, 112.965, 0.832395, -166.769
21, 0.00000, 2305.96, -5.31107, 2313.55, -125.109, 2305.08, 113.087, 0, 0, 32.6707, -5.31116, 32.7783, -125.109, 32.6583, 113.087, 0.895985, -166.848
22, 0.00000, 2312.86, -5.14925, 2318.1, -125.008, 2312.82, 113.267, 0, 0, 28.5903, -5.14933, 28.6552, -125.008, 28.59, 113.267, 0.776354, -162.908
23, 0.00000, 2328.62, -4.76223, 2327.87, -124.81, 2332.64, 113.742, 0, 0, 23.7955, -4.76239, 23.7879, -124.81, 23.8367, 113.742, 0.621282, -149.77
24, 0.00000, 2326.37, -4.76545, 2332.19, -124.765, 2346.85, 114.096, 0, 0, 19.6731, -4.76443, 19.7214, -124.765, 19.8442, 114.092, 0.381796, -132.746
25, 0.00000, 2335.5, -4.54595, 2339.01, -124.61, 2357.34, 114.347, 0, 0, 15.9539, -4.54607, 15.9778, -124.61, 16.1031, 114.347, 0.318822, -126.55
26, 0.00000, 2334.93, -4.55944, 2339.37, -124.601, 2357.42, 114.347, 0, 0, 14.588, -4.55895, 14.6156, -124.601, 14.7285, 114.347, 0.28497, -126.688
27, 0.00000, 2333.25, -4.59038, 2338.58, -124.633, 2358.32, 114.373, 0, 0, 14.2878, -4.58978, 14.3203, -124.633, 14.4411, 114.372, 0.269724, -122.3
28, 0.00000, 2332.85, -4.59802, 2338.42, -124.64, 2358.52, 114.378, 0, 0, 14.1845, -4.59786, 14.2183, -124.64, 14.3405, 114.378, 0.265467, -121.242
29, 0.00000, 2325.29, -4.77661, 2331.92, -124.803, 2350.54, 114.189, 0, 0, 15.8666, -4.77441, 15.9115, -124.802, 16.0389, 114.192, 0.290735, -122.836
30, 0.00000, 2323.29, -4.83291, 2328.92, -124.862, 2344.78, 114.051, 0, 0, 19.5228, -4.83245, 19.5702, -124.862, 19.7038, 114.052, 0.374563, -129.156
31, 0.00000, 2300.94, -5.37842, 2309.83, -125.302, 2316.06, 113.363, 0, 0, 23.5271, -5.37824, 23.6178, -125.302, 23.6815, 113.363, 0.463686, -145.914
32, 0.00000, 2306.23, -5.25901, 2320.21, -125.05, 2321.44, 113.489, 0, 0, 21.4415, -5.25866, 21.5714, -125.049, 21.5827, 113.49, 0.398325, -154.831
33, 0.00000, 2295.16, -5.53936, 2312.72, -125.206, 2305.85, 113.11, 0, 0, 18.8813, -5.53921, 19.0257, -125.206, 18.9692, 113.11, 0.387392, -168.274
34, 0.00000, 2300.03, -5.41225, 2316.41, -125.142, 2314.65, 113.322, 0, 0, 16.7445, -5.41232, 16.8638, -125.142, 16.8509, 113.322, 0.309975, -160.259
35, 0.00000, 2293.69, -5.51025, 2318.34, -125.148, 2324.25, 113.566, 0, 0, 14.3181, -5.51008, 14.4719, -125.148, 14.5088, 113.566, 0.150293, -142.871
36, 0.00000, 2289.95, -5.58372, 2317.92, -125.167, 2324.66, 113.58, 0, 0, 14.3723, -5.58379, 14.5479, -125.167, 14.5902, 113.58, 0.119927, -137.547
37, 0.00000, 2287.63, -5.62647, 2318.82, -125.146, 2325.65, 113.606, 0, 0, 14.2396, -5.63043, 14.4338, -125.146, 14.4763, 113.606, 0.0923463, -134.746
38, 0.00000, 2289.24, -5.58831, 2320.45, -125.105, 2327.56, 113.65, 0, 0, 13.8965, -5.58744, 14.0859, -125.105, 14.129, 113.651, 0.0902903, -133.398
39, 0.00000, 2289.67, -5.58059, 2320.19, -125.112, 2327.4, 113.646, 0, 0, 13.7778, -5.57977, 13.9614, -125.112, 14.0048, 113.646, 0.0943876, -133.477
40, 0.00000, 2289.21, -5.59402, 2319.09, -125.138, 2325.82, 113.609, 0, 0, 14.8442, -5.59391, 15.038, -125.138, 15.0817, 113.609, 0.108293, -136.321
41, 0.00000, 2288.93, -5.61156, 2317.18, -125.162, 2320.44, 113.481, 0, 0, 20.7724, -5.61163, 21.0288, -125.163, 21.0589, 113.48, 0.195222, -151.716
42, 0.00000, 2291.69, -5.58453, 2310.3, -125.279, 2309.49, 113.214, 0, 0, 29.1046, -5.5809, 29.3414, -125.281, 29.3332, 113.21, 0.492043, -158.982
43, 0.00000, 2293.39, -5.5819, 2305.9, -125.321, 2299.01, 112.953, 0, 0, 33.6086, -5.58193, 33.7919, -125.321, 33.6909, 112.953, 0.794736, -166.707
44, 0.00000, 2297.04, -5.50748, 2307.35, -125.277, 2299.68, 112.965, 0, 0, 32.878, -5.50754, 33.0257, -125.277, 32.9159, 112.965, 0.832395, -166.769
45, 0.00000, 2305.96, -5.31107, 2313.55, -125.109, 2305.08, 113.087, 0, 0, 32.6707, -5.31116, 32.7783, -125.109, 32.6583, 113.087, 0.895985, -166.848
46, 0.00000, 2312.86, -5.14925, 2318.1, -125.008, 2312.82, 113.267, 0, 0, 28.5903, -5.14933, 28.6552, -125.008, 28.59, 113.267, 0.776354, -162.908
47, 0.00000, 2328.62, -4.76223, 2327.87, -124.81, 2332.64, 113.742, 0, 0, 23.7955, -4.76239, 23.7879, -124.81, 23.8367, 113.742, 0.621282, -149.77
48, 0.00000, 2326.37, -4.76545, 2332.19, -124.765, 2346.85, 114.096, 0, 0, 19.6731, -4.76443, 19.7214, -124.765, 19.8442, 114.092, 0.381796, -132.746
49, 0.00000, 2335.5, -4.54595, 2339.01, -124.61, 2357.34, 114.347, 0, 0, 15.9539, -4.54607, 15.9778, -124.61, 16.1031, 114.347, 0.318822, -126.55
50, 0.00000, 2334.93, -4.55944, 2339.37, -124.601, 2357.42, 114.347, 0, 0, 14.588, -4.55895, 14.6156, -124.601, 14.7285, 114.347, 0.28497, -126.688
51, 0.00000, 2333.25, -4.59038, 2338.58, -124.633, 2358.32, 114.373, 0, 0, 14.2878, -4.58978, 14.3203, -124.633, 14.4411, 114.372, 0.269724, -122.3
52, 0.00000, 2332.85, -4.59802, 2338.42, -124.64, 2358.52, 114.378, 0, 0, 14.1845, -4.59786, 14.2183, -124.64, 14.3405, 114.378, 0.265467, -121.242
53, 0.00000, 2325.29, -4.77661, 2331.92, -124.803, 2350.54, 114.189, 0, 0, 15.8666, -4.77441, 15.9115, -124.802, 16.0389, 114.192, 0.290735, -122.836
54, 0.00000, 2323.29, -4.83291, 2328.92, -124.862, 2344.78, 114.051, 0, 0, 19.5228, -4.83245, 19.5702, -124.862, 19.7038, 114.052, 0.374563, -129.156
55, 0.00000, 2300.94, -5.37842, 2309.83, -125.302, 2316.06, 113.363, 0, 0, 23.5271, -5.37824, 23.6178, -125.302, 23.6815, 113.363, 0.463686, -145.914
56, 0.00000, 2306.23, -5.25901, 2320.21, -125.05, 2321.44, 113.489, 0, 0, 21.4415, -5.25866, 21.5714, -125.049, 21.5827, 113.49, 0.398325, -154.831
57, 0.00000, 2295.16, -5.53936, 2312.72, -125.206, 2305.85, 113.11, 0, 0, 18.8813, -5.53921, 19.0257, -125.206, 18.9692, 113.11, 0.387392, -168.274
58, 0.00000, 2300.03, -5.41225, 2316.41, -125.142, 2314.65, 113.322, 0, 0, 16.7445, -5.41232, 16.8638, -125.142, 16.8509, 113.322, 0.309975, -160.259
59, 0.00000, 2293.69, -5.51025, 2318.34, -125.148, 2324.25, 113.566, 0, 0, 14.3181, -5.51008, 14.4719, -125.148, 14.5088, 113.566, 0.150293, -142.871
60, 0.00000, 2289.95, -5.58372, 2317.92, -125.167, 2324.66, 113.58, 0, 0, 14.3723, -5.58379, 14.5479, -125.167, 14.5902, 113.58, 0.119927, -137.547
61, 0.00000, 2287.63, -5.62647, 2318.82, -125.146, 2325.65, 113.606, 0, 0, 14.2396, -5.63043, 14.4338, -125.146, 14.4763, 113.606, 0.0923463, -134.746
62, 0.00000, 2289.24, -5.58831, 2320.45, -125.105, 2327.56, 113.65, 0, 0, 13.8965, -5.58744, 14.0859, -125.105, 14.129, 113.651, 0.0902903, -133.398
63, 0.00000, 2289.67, -5.58059, 2320.19, -125.112, 2327.4, 113.646, 0, 0, 13.7778, -5.57977, 13.9614, -125.112, 14.0048, 113.646, 0.0943876, -133.477
64, 0.00000, 2289.21, -5.59402, 2319.09, -125.138, 2325.82, 113.609, 0, 0, 14.8442, -5.59391, 15.038, -125.138, 15.0817, 113.609, 0.108293, -136.321
65, 0.00000, 2288.93, -5.61156, 2317.18, -125.162, 2320.44, 113.481, 0, 0, 20.7724, -5.61163, 21.0288, -125.163, 21.0589, 113.48, 0.195222, -151.716
66, 0.00000, 2291.69, -5.58453, 2310.3, -125.279, 2309.49, 113.214, 0, 0, 29.1046, -5.5809, 29.3414, -125.281, 29.3332, 113.21, 0.492043, -158.982
67, 0.00000, 2293.39, -5.5819, 2305.9, -125.321, 2299.01, 112.953, 0, 0, 33.6086, -5.58193, 33.7919, -125.321, 33.6909, 112.953, 0.794736, -166.707
68, 0.00000, 2297.04, -5.50748, 2307.35, -125.277, 2299.68, 112.965, 0, 0, 32.878, -5.50754, 33.0257, -125.277, 32.9159, 112.965, 0.832395, -166.769
69, 0.00000, 2305.96, -5.31107, 2313.55, -125.109, 2305.08, 113.087, 0, 0, 32.6707, -5.31116, 32.7783, -125.109, 32.6583, 113.087, 0.895985, -166.848
70, 0.00000, 2312.86, -5.14925, 2318.1, -125.008, 2312.82, 113.267, 0, 0, 28.5903, -5.14933, 28.6552, -125.008, 28.59, 113.267, 0.776354, -162.908
71, 0.00000, 2328.62, -4.76223, 2327.87, -124.81, 2332.64, 113.742, 0, 0, 23.7955, -4.76239, 23.7879, -124.81, 23.8367, 113.742, 0.621282, -149.77
72, 0.00000, 2326.37, -4.76545, 2332.19, -124.765, 2346.85, 114.096, 0, 0, 19.6731, -4.76443, 19.7214, -124.765, 19.8442, 114.092, 0.381796, -132.746
73, 0.00000, 2335.5, -4.54595, 2339.01, -124.61, 2357.34, 114.347, 0, 0, 15.9539, -4.54607, 15.9778, -124.61, 16.1031, 114.347, 0.318822, -126.55
74, 0.00000, 2334.93, -4.55944, 2339.37, -124.601, 2357.42, 114.347, 0, 0, 14.588, -4.55895, 14.6156, -124.601, 14.7285, 114.347, 0.28497, -126.688
75, 0.00000, 2333.25, -4.59038, 2338.58, -124.633, 2358.32, 114.373, 0, 0, 14.2878, -4.58978, 14.3203, -124.633, 14.4411, 114.372, 0.269724, -122.3
76, 0.00000, 2332.85, -4.59802, 2338.42, -124.64, 2358.52, 114.378, 0, 0, 14.1845, -4.59786, 14.2183, -124.64, 14.3405, 114.378, 0.265467, -121.242
77, 0.00000, 2325.29, -4.77661, 2331.92, -124.803, 2350.54, 114.189, 0, 0, 15.8666, -4.77441, 15.9115, -124.802, 16.0389, 114.192, 0.290735, -122.836
78, 0.00000, 2323.29, -4.83291, 2328.92, -124.862, 2344.78, 114.051, 0, 0, 19.5228, -4.83245, 19.5702, -124.862, 19.7038, 114.052, 0.374563, -129.156
79, 0.00000, 2300.94, -5.37842, 2309.83, -125.302, 2316.06, 113.363, 0, 0, 23.5271, -5.37824, 23.6178, -125.302, 23.6815, 113.363, 0.463686, -145.914
80, 0.00000, 2306.23, -5.25901, 2320.21, -125.05, 2321.44, 113.489, 0, 0, 21.4415, -5.25866, 21.5714, -125.049, 21.5827, 113.49, 0.398325, -154.831
81, 0.00000, 2295.16, -5.53936, 2312.72, -125.206, 2305.85, 113.11, 0, 0, 18.8813, -5.53921, 19.0257, -125.206, 18.9692, 113.11, 0.387392, -168.274
82, 0.00000, 2300.03, -5.41225, 2316.41, -125.142, 2314.65, 113.322, 0, 0, 16.7445, -5.41232, 16.8638, -125.142, 16.8509, 113.322, 0.309975, -160.259
83, 0.00000, 2293.69, -5.51025, 2318.34, -125.148, 2324.25, 113.566, 0, 0, 14.3181, -5.51008, 14.4719, -125.148, 14.5088, 113.566, 0.150293, -142.871
84, 0.00000, 2289.95, -5.58372, 2317.92, -125.167, 2324.66, 113.58, 0, 0, 14.3723, -5.58379, 14.5479, -125.167, 14.5902, 113.58, 0.119927, -137.547
85, 0.00000, 2287.63, -5.62647, 2318.82, -125.146, 2325.65, 113.606, 0, 0, 14.2396, -5.63043, 14.4338, -125.146, 14.4763, 113.606, 0.0923463, -134.746
86, 0.00000, 2289.24, -5.58831, 2320.45, -125.105, 2327.56, 113.65, 0, 0, 13.8965, -5.58744, 14.0859, -125.105, 14.129, 113.651, 0.0902903, -133.398
87, 0.00000, 2289.67, -5.58059, 2320.19, -125.112, 2327.4, 113.646, 0, 0, 13.7778, -5.57977, 13.9614, -125.112, 14.0048, 113.646, 0.0943876, -133.477
88, 0.00000, 2289.21, -5.59402, 2319.09, -125.138, 2325.82, 113.609, 0, 0, 14.8442, -5.59391, 15.038, -125.138, 15.0817, 113.609, 0.108293, -136.321
89, 0.00000, 2288.93, -5.61156, 2317.18, -125.162, 2320.44, 113.481, 0, 0, 20.7724, -5.61163, 21.0288, -125.163, 21.0589, 113.48, 0.195222, -151.716
90, 0.00000, 2291.69, -5.58453, 2310.3, -125.279, 2309.49, 113.214, 0, 0, 29.1046, -5.5809, 29.3414, -125.281, 29.3332, 113.21, 0.492043, -158.982
91, 0.00000, 2293.39, -5.5819, 2305.9, -125.321, 2299.01, 112.953, 0, 0, 33.6086, -5.58193, 33.7919, -125.321, 33.6909, 112.953, 0.794736, -166.707
92, 0.00000, 2297.04, -5.50748, 2307.35, -125.277, 2299.68, 112.965, 0, 0, 32.878, -5.50754, 33.0257, -125.277, 32.9159, 112.965, 0.832395, -166.769
93, 0.00000, 2305.96, -5.31107, 2313.55, -125.109, 2305.08, 113.087, 0, 0, 32.6707, -5.31116, 32.7783, -125.109, 32.6583, 113.087, 0.895985, -166.848
94, 0.00000, 2312.86, -5.14925, 2318.1, -125.008, 2312.82, 113.267, 0, 0, 28.5903, -5.14933, 28.6552, -125.008, 28.59, 113.267, 0.776354, -162.908
95, 0.00000, 2328.62, -4.76223, 2327.87, -124.81, 2332.64, 113.742, 0, 0, 23.7955, -4.76239, 23.7879, -124.81, 23.8367, 113.742, 0.621282, -149.77
96, 0.00000, 2326.37, -4.76545, 2332.19, -124.765, 2346.85, 114.096, 0, 0, 19.6731, -4.76443, 19.7214, -124.765, 19.8442, 114.092, 0.381796, -132.746
97, 0.00000, 2335.5, -4.54595, 2339.01, -124.61, 2357.34, 114.347, 0, 0, 15.9539, -4.54607, 15.9778, -124.61, 16.1031, 114.347, 0.318822, -126.55
98, 0.00000, 2334.93, -4.55944, 2339.37, -124.601, 2357.42, 114.347, 0, 0, 14.588, -4.55895, 14.6156, -124.601, 14.7285, 114.347, 0.28497, -126.688
99, 0.00000, 2333.25, -4.59038, 2338.58, -124.633, 2358.32, 114.373, 0, 0, 14.2878, -4.58978, 14.3203, -124.633, 14.4411, 114.372, 0.269724, -122.3
100, 0.00000, 2332.85, -4.59802, 2338.42, -124.64, 2358.52, 114.378, 0, 0, 14.1845, -4.59786, 14.2183, -124.64, 14.3405, 114.378, 0.265467, -121.242
101, 0.00000, 2325.29, -4.77661, 2331.92, -124.803, 2350.54, 114.189, 0, 0, 15.8666, -4.77441, 15.9115, -124.802, 16.0389, 114.192, 0.290735, -122.836
102, 0.00000, 2323.29, -4.83291, 2328.92, -124.862, 2344.78, 114.051, 0, 0, 19.5228, -4.83245, 19.5702, -124.862, 19.7038, 114.052, 0.374563, -129.156
103, 0.00000, 2300.94, -5.37842, 2309.83, -125.302, 2316.06, 113.363, 0, 0, 23.5271, -5.37824, 23.6178, -125.302, 23.6815, 113.363, 0.463686, -145.914
104, 0.00000, 2306.23, -5.25901, 2320.21, -125.05, 2321.44, 113.489, 0, 0, 21.4415, -5.25866, 21.5714, -125.049, 21.5827, 113.49, 0.398325, -154.831
105, 0.00000, 2295.16, -5.53936, 2312.72, -125.206, 2305.85, 113.11, 0, 0, 18.8813, -5.53921, 19.0257, -125.206, 18.9692, 113.11, 0.387392, -168.274
106, 0.00000, 2300.03, -5.41225, 2316.41, -125.142, 2314.65, 113.322, 0, 0, 16.7445, -5.41232, 16.8638, -125.142, 16.8509, 113.322, 0.309975, -160.259
107, 0.00000, 2293.69, -5.51025, 2318.34, -125.148, 2324.25, 113.566, 0, 0, 14.3181, -5.51008, 14.4719, -125.148, 14.5088, 113.566, 0.150293, -142.871
108, 0.00000, 2289.95, -5.58372, 2317.92, -125.167, 2324.66, 113.58, 0, 0, 14.3723, -5.58379, 14.5479, -125.167, 14.5902, 113.58, 0.119927, -137.547
109, 0.00000, 2287.63, -5.62647, 2318.82, -125.146, 2325.65, 113.606, 0, 0, 14.2396, -5.63043, 14.4338, -125.146, 14.4763, 113.606, 0.0923463, -134.746
110, 0.00000, 2289.24, -5.58831, 2320.45, -125.105, 2327.56, 113.65, 0, 0, 13.8965, -5.58744, 14.0859, -125.105, 14.129, 113.651, 0.0902903, -133.398
111, 0.00000, 2289.67, -5.58059, 2320.19, -125.112, 2327.4, 113.646, 0, 0, 13.7778, -5.57977, 13.9614, -125.112, 14.0048, 113.646, 0.0943876, -133.477
112, 0.00000, 2289.21, -5.59402, 2319.09, -125.138, 2325.82, 113.609, 0, 0, 14.8442, -5.59391, 15.038, -125.138, 15.0817, 113.609, 0.108293, -136.321
113, 0.00000, 2288.93, -5.61156, 2317.18, -125.162, 2320.44, 113.481, 0, 0, 20.7724, -5.61163, 21.0288, -125.163, 21.0589, 113.48, 0.195222, -151.716
114, 0.00000, 2291.69, -5.58453, 2310.3, -125.279, 2309.49, 113.214, 0, 0, 29.1046, -5.5809, 29.3414, -125.281, 29.3332, 113.21, 0.492043, -158.982
115, 0.00000, 2293.39, -5.5819, 2305.9, -125.321, 2299.01, 112.953, 0, 0, 33.6086, -5.58193, 33.7919, -125.321, 33.6909, 112.953, 0.794736, -166.707
116, 0.00000, 2297.04, -5.50748, 2307.35, -125.277, 2299.68, 112.965, 0, 0, 32.878, -5.50754, 33.0257, -125.277, 32.9159, 112.965, 0.832395, -166.769
117, 0.00000, 2305.96, -5.31107, 2313.55, -125.109, 2305.08, 113.087, 0, 0, 32.6707, -5.31116, 32.7783, -125.109, 32.6583, 113.087, 0.895985, -166.848
118, 0.00000, 2312.86, -5.14925, 2318.1, -125.008, 2312.82, 113.267, 0, 0, 28.5903, -5.14933, 28.6552, -125.008, 28.59, 113.267, 0.776354, -162.908
119, 0.00000, 2328.62, -4.76223, 2327.87, -124.81, 2332.64, 113.742, 0, 0, 23.7955, -4.76239, 23.7879, -124.81, 23.8367, 113.742, 0.621282, -149.77
120, 0.00000, 2326.37, -4.76545, 2332.19, -124.765, 2346.85, 114.096, 0, 0, 19.6731, -4.76443, 19.7214, -124.765, 19.8442, 114.092, 0.381796, -132.746
121, 0.00000, 2335.5, -4.54595, 2339.01, -124.61, 2357.34, 114.347, 0, 0, 15.9539, -4.54607, 15.9778, -124.61, 16.1031, 114.347, 0.318822, -126.55
122, 0.00000, 2334.93, -4.55944, 2339.37, -124.601, 2357.42, 114.347, 0, 0, 14.588, -4.55895, 14.6156, -124.601, 14.7285, 114.347, 0.28497, -126.688
123, 0.00000, 2333.25, -4.59038, 2338.58, -124.633, 2358.32, 114.373, 0, 0, 14.2878, -4.58978, 14.3203, -124.633, 14.4411, 114.372, 0.269724, -122.3
124, 0.00000, 2332.85, -4.59802, 2338.42, -124.64, 2358.52, 114.378, 0, 0, 14.1845, -4.59786, 14.2183, -124.64, 14.3405, 114.378, 0.265467, -121.242
125, 0.00000, 2325.29, -4.77661, 2331.92, -124.803, 2350.54, 114.189, 0, 0, 15.8666, -4.77441, 15.9115, -124.802, 16.0389, 114.192, 0.290735, -122.836
126, 0.00000, 2323.29, -4.83291, 2328.92, -124.862, 2344.78, 114.051, 0, 0, 19.5228, -4.83245, 19.5702, -124.862, 19.7038, 114.052, 0.374563, -129.156
127, 0.00000, 2300.94, -5.37842, 2309.83, -125.302, 2316.06, 113.363, 0, 0, 23.5271, -5.37824, 23.6178, -125.302, 23.6815, 113.363, 0.463686, -145.914
128, 0.00000, 2306.23, -5.25901, 2320.21, -125.05, 2321.44, 113.489, 0, 0, 21.4415, -5.25866, 21.5714, -125.049, 21.5827, 113.49, 0.398325, -154.831
129, 0.00000, 2295.16, -5.53936, 2312.72, -125.206, 2305.85, 113.11, 0, 0, 18.8813, -5.53921, 19.0257, -125.206, 18.9692, 113.11, 0.387392, -168.274
130, 0.00000, 2300.03, -5.41225, 2316.41, -125.142, 2314.65, 113.322, 0, 0, 16.7445, -5.41232, 16.8638, -125.142, 16.8509, 113.322, 0.309975, -160.259
131, 0.00000, 2293.69, -5.51025, 2318.34, -125.148, 2324.25, 113.566, 0, 0, 14.3181, -5.51008, 14.4719, -125.148, 14.5088, 113.566, 0.150293, -142.871
132, 0.00000, 2289.95, -5.58372, 2317.92, -125.167, 2324.66, 113.58, 0, 0, 14.3723, -5.58379, 14.5479, -125.167, 14.5902, 113.58, 0.119927, -137.547
133, 0.00000, 2287.63, -5.62647, 2318.82, -125.146, 2325.65, 113.606, 0, 0, 14.2396, -5.63043, 14.4338, -125.146, 14.4763, 113.606, 0.0923463, -134.746
