hour, t(sec), V1, VAngle1, V2, VAngle2, I1, IAngle1, I2, IAngle2
1, 0.00000, 2343.49, 114.443, 0, 0, 8.45694, 114.443, 8.45694, -65.5572
2, 0.00000, 2343.64, 114.443, 0, 0, 7.73527, 114.443, 7.73527, -65.5571
3, 0.00000, 2344.76, 114.473, 0, 0, 7.5851, 114.473, 7.5851, -65.5271
4, 0.00000, 2345, 114.48, 0, 0, 7.53241, 114.48, 7.53241, -65.5202
5, 0.00000, 2337.03, 114.293, 0, 0, 8.42431, 114.295, 8.42431, -65.705
6, 0.00000, 2330.87, 114.149, 0, 0, 10.3474, 114.151, 10.3474, -65.8494
7, 0.00000, 2316.49, 113.46, 0, 0, 12.5128, 113.459, 12.5128, -66.5406
8, 0.00000, 2321.96, 113.585, 0, 0, 11.4041, 113.581, 11.4041, -66.4192
9, 0.00000, 2306.14, 113.195, 0, 0, 10.0224, 113.195, 10.0224, -66.8045
10, 0.00000, 2315.45, 113.417, 0, 0, 8.90513, 113.417, 8.90513, -66.5829
11, 0.00000, 2325.92, 113.68, 0, 0, 7.67024, 113.679, 7.67024, -66.3206
12, 0.00000, 2326.44, 113.696, 0, 0, 7.7136, 113.696, 7.7136, -66.3036
13, 0.00000, 2327.42, 113.722, 0, 0, 7.65337, 113.721, 7.65337, -66.2791
14, 0.00000, 2329.33, 113.766, 0, 0, 7.46974, 113.764, 7.46974, -66.2358
15, 0.00000, 2329.19, 113.762, 0, 0, 7.40416, 113.762, 7.40416, -66.2381
16, 0.00000, 2327.53, 113.724, 0, 0, 7.97325, 113.726, 7.97325, -66.2744
17, 0.00000, 2321.47, 113.589, 0, 0, 11.13, 113.593, 11.13, -66.4074
18, 0.00000, 2309.34, 113.306, 0, 0, 15.4953, 113.311, 15.4953, -66.6893
19, 0.00000, 2297.64, 113.021, 0, 0, 17.7878, 113.021, 17.7878, -66.9787
20, 0.00000, 2298.24, 113.03, 0, 0, 17.3779, 113.03, 17.3779, -66.9702
21, 0.00000, 2303.38, 113.145, 0, 0, 17.24, 113.145, 17.24, -66.8549
22, 0.00000, 2311.54, 113.329, 0, 0, 15.0951, 113.329, 15.0951, -66.671
23, 0.00000, 2332.28, 113.819, 0, 0, 12.5905, 113.818, 12.5905, -66.1816
24, 0.00000, 2347.56, 114.194, 0, 0, 10.4872, 114.193, 10.4872, -65.8066
25, 0.00000, 2358.47, 114.448, 0, 0, 8.51103, 114.448, 8.51103, -65.5519
26, 0.00000, 2358.62, 114.449, 0, 0, 7.78471, 114.449, 7.78471, -65.5514
27, 0.00000, 2359.73, 114.479, 0, 0, 7.63356, 114.478, 7.63356, -65.5224
28, 0.00000, 2359.98, 114.485, 0, 0, 7.58052, 114.485, 7.58052, -65.5149
29, 0.00000, 2351.96, 114.298, 0, 0, 8.47821, 114.307, 8.47821, -65.6926
30, 0.00000, 2345.78, 114.155, 0, 0, 10.4136, 114.161, 10.4136, -65.8387
31, 0.00000, 2316.49, 113.46, 0, 0, 12.5129, 113.46, 12.5129, -66.5401
32, 0.00000, 2321.96, 113.585, 0, 0, 11.4041, 113.581, 11.4041, -66.4192
33, 0.00000, 2306.14, 113.195, 0, 0, 10.0224, 113.195, 10.0224, -66.8045
34, 0.00000, 2315.45, 113.417, 0, 0, 8.90513, 113.417, 8.90513, -66.5829
35, 0.00000, 2325.92, 113.68, 0, 0, 7.67024, 113.679, 7.67024, -66.3206
36, 0.00000, 2326.44, 113.696, 0, 0, 7.7136, 113.696, 7.7136, -66.3036
37, 0.00000, 2327.42, 113.722, 0, 0, 7.65337, 113.721, 7.65337, -66.2791
38, 0.00000, 2329.33, 113.766, 0, 0, 7.46974, 113.764, 7.46974, -66.2358
39, 0.00000, 2329.19, 113.762, 0, 0, 7.40416, 113.762, 7.40416, -66.2381
40, 0.00000, 2327.53, 113.724, 0, 0, 7.97325, 113.726, 7.97325, -66.2744
41, 0.00000, 2321.47, 113.589, 0, 0, 11.13, 113.593, 11.13, -66.4074
42, 0.00000, 2309.34, 113.306, 0, 0, 15.4953, 113.311, 15.4953, -66.6893
43, 0.00000, 2297.64, 113.021, 0, 0, 17.7878, 113.021, 17.7878, -66.9787
44, 0.00000, 2298.24, 113.03, 0, 0, 17.3779, 113.03, 17.3779, -66.9702
45, 0.00000, 2303.38, 113.145, 0, 0, 17.24, 113.145, 17.24, -66.8549
46, 0.00000, 2311.54, 113.329, 0, 0, 15.0951, 113.329, 15.0951, -66.671
47, 0.00000, 2332.28, 113.819, 0, 0, 12.5905, 113.818, 12.5905, -66.1816
48, 0.00000, 2347.56, 114.194, 0, 0, 10.4872, 114.193, 10.4872, -65.8066
49, 0.00000, 2358.47, 114.448, 0, 0, 8.51103, 114.448, 8.51103, -65.5519
50, 0.00000, 2358.62, 114.449, 0, 0, 7.78471, 114.449, 7.78471, -65.5514
51, 0.00000, 2359.73, 114.479, 0, 0, 7.63356, 114.478, 7.63356, -65.5224
52, 0.00000, 2359.98, 114.485, 0, 0, 7.58052, 114.485, 7.58052, -65.5149
53, 0.00000, 2351.96, 114.298, 0, 0, 8.47821, 114.307, 8.47821, -65.6926
54, 0.00000, 2345.78, 114.155, 0, 0, 10.4136, 114.161, 10.4136, -65.8387
55, 0.00000, 2316.49, 113.46, 0, 0, 12.5129, 113.46, 12.5129, -66.5401
56, 0.00000, 2321.96, 113.585, 0, 0, 11.4041, 113.581, 11.4041, -66.4192
57, 0.00000, 2306.14, 113.195, 0, 0, 10.0224, 113.195, 10.0224, -66.8045
58, 0.00000, 2315.45, 113.417, 0, 0, 8.90513, 113.417, 8.90513, -66.5829
59, 0.00000, 2325.92, 113.68, 0, 0, 7.67024, 113.679, 7.67024, -66.3206
60, 0.00000, 2326.44, 113.696, 0, 0, 7.7136, 113.696, 7.7136, -66.3036
61, 0.00000, 2327.42, 113.722, 0, 0, 7.65337, 113.721, 7.65337, -66.2791
62, 0.00000, 2329.33, 113.766, 0, 0, 7.46974, 113.764, 7.46974, -66.2358
63, 0.00000, 2329.19, 113.762, 0, 0, 7.40416, 113.762, 7.40416, -66.2381
64, 0.00000, 2327.53, 113.724, 0, 0, 7.97325, 113.726, 7.97325, -66.2744
65, 0.00000, 2321.47, 113.589, 0, 0, 11.13, 113.593, 11.13, -66.4074
66, 0.00000, 2309.34, 113.306, 0, 0, 15.4953, 113.311, 15.4953, -66.6893
67, 0.00000, 2297.64, 113.021, 0, 0, 17.7878, 113.021, 17.7878, -66.9787
68, 0.00000, 2298.24, 113.03, 0, 0, 17.3779, 113.03, 17.3779, -66.9702
69, 0.00000, 2303.38, 113.145, 0, 0, 17.24, 113.145, 17.24, -66.8549
70, 0.00000, 2311.54, 113.329, 0, 0, 15.0951, 113.329, 15.0951, -66.671
71, 0.00000, 2332.28, 113.819, 0, 0, 12.5905, 113.818, 12.5905, -66.1816
72, 0.00000, 2347.56, 114.194, 0, 0, 10.4872, 114.193, 10.4872, -65.8066
73, 0.00000, 2358.47, 114.448, 0, 0, 8.51103, 114.448, 8.51103, -65.5519
74, 0.00000, 2358.62, 114.449, 0, 0, 7.78471, 114.449, 7.78471, -65.5514
75, 0.00000, 2359.73, 114.479, 0, 0, 7.63356, 114.478, 7.63356, -65.5224
76, 0.00000, 2359.98, 114.485, 0, 0, 7.58052, 114.485, 7.58052, -65.5149
77, 0.00000, 2351.96, 114.298, 0, 0, 8.47821, 114.307, 8.47821, -65.6926
78, 0.00000, 2345.78, 114.155, 0, 0, 10.4136, 114.161, 10.4136, -65.8387
79, 0.00000, 2316.49, 113.46, 0, 0, 12.5129, 113.46, 12.5129, -66.5401
80, 0.00000, 2321.96, 113.585, 0, 0, 11.4041, 113.581, 11.4041, -66.4192
81, 0.00000, 2306.14, 113.195, 0, 0, 10.0224, 113.195, 10.0224, -66.8045
82, 0.00000, 2315.45, 113.417, 0, 0, 8.90513, 113.417, 8.90513, -66.5829
83, 0.00000, 2325.92, 113.68, 0, 0, 7.67024, 113.679, 7.67024, -66.3206
84, 0.00000, 2326.44, 113.696, 0, 0, 7.7136, 113.696, 7.7136, -66.3036
85, 0.00000, 2327.42, 113.722, 0, 0, 7.65337, 113.721, 7.65337, -66.2791
86, 0.00000, 2329.33, 113.766, 0, 0, 7.46974, 113.764, 7.46974, -66.2358
87, 0.00000, 2329.19, 113.762, 0, 0, 7.40416, 113.762, 7.40416, -66.2381
88, 0.00000, 2327.53, 113.724, 0, 0, 7.97325, 113.726, 7.97325, -66.2744
89, 0.00000, 2321.47, 113.589, 0, 0, 11.13, 113.593, 11.13, -66.4074
90, 0.00000, 2309.34, 113.306, 0, 0, 15.4953, 113.311, 15.4953, -66.6893
91, 0.00000, 2297.64, 113.021, 0, 0, 17.7878, 113.021, 17.7878, -66.9787
92, 0.00000, 2298.24, 113.03, 0, 0, 17.3779, 113.03, 17.3779, -66.9702
93, 0.00000, 2303.38, 113.145, 0, 0, 17.24, 113.145, 17.24, -66.8549
94, 0.00000, 2311.54, 113.329, 0, 0, 15.0951, 113.329, 15.0951, -66.671
95, 0.00000, 2332.28, 113.819, 0, 0, 12.5905, 113.818, 12.5905, -66.1816
96, 0.00000, 2347.56, 114.194, 0, 0, 10.4872, 114.193, 10.4872, -65.8066
97, 0.00000, 2358.47, 114.448, 0, 0, 8.51103, 114.448, 8.51103, -65.5519
98, 0.00000, 2358.62, 114.449, 0, 0, 7.78471, 114.449, 7.78471, -65.5514
99, 0.00000, 2359.73, 114.479, 0, 0, 7.63356, 114.478, 7.63356, -65.5224
100, 0.00000, 2359.98, 114.485, 0, 0, 7.58052, 114.485, 7.58052, -65.5149
101, 0.00000, 2351.96, 114.298, 0, 0, 8.47821, 114.307, 8.47821, -65.6926
102, 0.00000, 2345.78, 114.155, 0, 0, 10.4136, 114.161, 10.4136, -65.8387
103, 0.00000, 2316.49, 113.46, 0, 0, 12.5129, 113.46, 12.5129, -66.5401
104, 0.00000, 2321.96, 113.585, 0, 0, 11.4041, 113.581, 11.4041, -66.4192
105, 0.00000, 2306.14, 113.195, 0, 0, 10.0224, 113.195, 10.0224, -66.8045
106, 0.00000, 2315.45, 113.417, 0, 0, 8.90513, 113.417, 8.90513, -66.5829
107, 0.00000, 2325.92, 113.68, 0, 0, 7.67024, 113.679, 7.67024, -66.3206
108, 0.00000, 2326.44, 113.696, 0, 0, 7.7136, 113.696, 7.7136, -66.3036
109, 0.00000, 2327.42, 113.722, 0, 0, 7.65337, 113.721, 7.65337, -66.2791
110, 0.00000, 2329.33, 113.766, 0, 0, 7.46974, 113.764, 7.46974, -66.2358
111, 0.00000, 2329.19, 113.762, 0, 0, 7.40416, 113.762, 7.40416, -66.2381
112, 0.00000, 2327.53, 113.724, 0, 0, 7.97325, 113.726, 7.97325, -66.2744
113, 0.00000, 2321.47, 113.589, 0, 0, 11.13, 113.593, 11.13, -66.4074
114, 0.00000, 2309.34, 113.306, 0, 0, 15.4953, 113.311, 15.4953, -66.6893
115, 0.00000, 2297.64, 113.021, 0, 0, 17.7878, 113.021, 17.7878, -66.9787
116, 0.00000, 2298.24, 113.03, 0, 0, 17.3779, 113.03, 17.3779, -66.9702
117, 0.00000, 2303.38, 113.145, 0, 0, 17.24, 113.145, 17.24, -66.8549
118, 0.00000, 2311.54, 113.329, 0, 0, 15.0951, 113.329, 15.0951, -66.671
119, 0.00000, 2332.28, 113.819, 0, 0, 12.5905, 113.818, 12.5905, -66.1816
120, 0.00000, 2347.56, 114.194, 0, 0, 10.4872, 114.193, 10.4872, -65.8066
121, 0.00000, 2358.47, 114.448, 0, 0, 8.51103, 114.448, 8.51103, -65.5519
122, 0.00000, 2358.62, 114.449, 0, 0, 7.78471, 114.449, 7.78471, -65.5514
123, 0.00000, 2359.73, 114.479, 0, 0, 7.63356, 114.478, 7.63356, -65.5224
124, 0.00000, 2359.98, 114.485, 0, 0, 7.58052, 114.485, 7.58052, -65.5149
125, 0.00000, 2351.96, 114.298, 0, 0, 8.47821, 114.307, 8.47821, -65.6926
126, 0.00000, 2345.78, 114.155, 0, 0, 10.4136, 114.161, 10.4136, -65.8387
127, 0.00000, 2316.49, 113.46, 0, 0, 12.5129, 113.46, 12.5129, -66.5401
128, 0.00000, 2321.96, 113.585, 0, 0, 11.4041, 113.581, 11.4041, -66.4192
129, 0.00000, 2306.14, 113.195, 0, 0, 10.0224, 113.195, 10.0224, -66.8045
130, 0.00000, 2315.45, 113.417, 0, 0, 8.90513, 113.417, 8.90513, -66.5829
131, 0.00000, 2325.92, 113.68, 0, 0, 7.67024, 113.679, 7.67024, -66.3206
132, 0.00000, 2326.44, 113.696, 0, 0, 7.7136, 113.696, 7.7136, -66.3036
133, 0.00000, 2327.42, 113.722, 0, 0, 7.65337, 113.721, 7.65337, -66.2791
134, 0.00000, 2329.33, 113.766, 0, 0, 7.46974, 113.764, 7.46974, -66.2358
135, 0.00000, 2329.19, 113.762, 0, 0, 7.40416, 113.762, 7.40416, -66.2381
136, 0.00000, 2327.53, 113.724, 0, 0, 7.97325, 113.726, 7.97325, -66.2744
137, 0.00000, 2321.47, 113.589, 0, 0, 11.13, 113.593, 11.13, -66.4074
138, 0.00000, 2309.34, 113.306, 0, 0, 15.4953, 113.311, 15.4953, -66.6893
139, 0.00000, 2297.64, 113.021, 0, 0, 17.7878, 113.021, 17.7878, -66.9787
140, 0.00000, 2298.24, 113.03, 0, 0, 17.3779, 113.03, 17.3779, -66.9702
141, 0.00000, 2303.38, 113.145, 0, 0, 17.24, 113.145, 17.24, -66.8549
142, 0.00000, 2311.54, 113.329, 0, 0, 15.0951, 113.329, 15.0951, -66.671
143, 0.00000, 2332.28, 113.819, 0, 0, 12.5905, 113.818, 12.5905, -66.1816
144, 0.00000, 2347.56, 114.194, 0, 0, 10.4872, 114.193, 10.4872, -65.8066
145, 0.00000, 2358.47, 114.448, 0, 0, 8.51103, 114.448, 8.51103, -65.5519
146, 0.00000, 2358.62, 114.449, 0, 0, 7.78471, 114.449, 7.78471, -65.5514
147, 0.00000, 2359.73, 114.479, 0, 0, 7.63356, 114.478, 7.63356, -65.5224
148, 0.00000, 2359.98, 114.485, 0, 0, 7.58052, 114.485, 7.58052, -65.5149
149, 0.00000, 2351.96, 114.298, 0, 0, 8.47821, 114.307, 8.47821, -65.6926
150, 0.00000, 2345.78, 114.155, 0, 0, 10.4136, 114.161, 10.4136, -65.8387
151, 0.00000, 2316.49, 113.46, 0, 0, 12.5129, 113.46, 12.5129, -66.5401
152, 0.00000, 2321.96, 113.585, 0, 0, 11.4041, 113.581, 11.4041, -66.4192
153, 0.00000, 2306.14, 113.195, 0, 0, 10.0224, 113.195, 10.0224, -66.8045
154, 0.00000, 2315.45, 113.417, 0, 0, 8.90513, 113.417, 8.90513, -66.5829
155, 0.00000, 2325.92, 113.68, 0, 0, 7.67024, 113.679, 7.67024, -66.3206
156, 0.00000, 2326.44, 113.696, 0, 0, 7.7136, 113.696, 7.7136, -66.3036
157, 0.00000, 2327.42, 113.722, 0, 0, 7.65337, 113.721, 7.65337, -66.2791
158, 0.00000, 2329.33, 113.766, 0, 0, 7.46974, 113.764, 7.46974, -66.2358
159, 0.00000, 2329.19, 113.762, 0, 0, 7.40416, 113.762, 7.40416, -66.2381
160, 0.00000, 2327.53, 113.724, 0, 0, 7.97325, 113.726, 7.97325, -66.2744
161, 0.00000, 2321.47, 113.589, 0, 0, 11.13, 113.593, 11.13, -66.4074
162, 0.00000, 2309.34, 113.306, 0, 0, 15.4953, 113.311, 15.4953, -66.6893
163, 0.00000, 2297.64, 113.021, 0, 0, 17.7878, 113.021, 17.7878, -66.9787
164, 0.00000, 2298.24, 113.03, 0, 0, 17.3779, 113.03, 17.3779, -66.9702
165, 0.00000, 2303.38, 113.145, 0, 0, 17.24, 113.145, 17.24, -66.8549
166, 0.00000, 2311.54, 113.329, 0, 0, 15.0951, 113.329, 15.0951, -66.671
167, 0.00000, 2332.28, 113.819, 0, 0, 12.5905, 113.818, 12.5905, -66.1816
168, 0.00000, 2347.56, 114.194, 0, 0, 10.4872, 114.193, 10.4872, -65.8066
169, 0.00000, 2358.47, 114.448, 0, 0, 8.51103, 114.448, 8.51103, -65.5519
170, 0.00000, 2358.62, 114.449, 0, 0, 7.78471, 114.449, 7.78471, -65.5514
171, 0.00000, 2359.73, 114.479, 0, 0, 7.63356, 114.478, 7.63356, -65.5224
172, 0.00000, 2359.98, 114.485, 0, 0, 7.58052, 114.485, 7.58052, -65.5149
173, 0.00000, 2351.96, 114.298, 0, 0, 8.47821, 114.307, 8.47821, -65.6926
174, 0.00000, 2345.78, 114.155, 0, 0, 10.4136, 114.161, 10.4136, -65.8387
175, 0.00000, 2316.49, 113.46, 0, 0, 12.5129, 113.46, 12.5129, -66.5401
176, 0.00000, 2321.96, 113.585, 0, 0, 11.4041, 113.581, 11.4041, -66.4192
177, 0.00000, 2306.14, 113.195, 0, 0, 10.0224, 113.195, 10.0224, -66.8045
178, 0.00000, 2315.45, 113.417, 0, 0, 8.90513, 113.417, 8.90513, -66.5829
179, 0.00000, 2325.92, 113.68, 0, 0, 7.67024, 113.679, 7.67024, -66.3206
180, 0.00000, 2326.44, 113.696, 0, 0, 7.7136, 113.696, 7.7136, -66.3036
181, 0.00000, 2327.42, 113.722, 0, 0, 7.65337, 113.721, 7.65337, -66.2791
182, 0.00000, 2329.33, 113.766, 0, 0, 7.46974, 113.764, 7.46974, -66.2358
183, 0.00000, 2329.19, 113.762, 0, 0, 7.40416, 113.762, 7.40416, -66.2381
184, 0.00000, 2327.53, 113.724, 0, 0, 7.97325, 113.726, 7.97325, -66.2744
185, 0.00000, 2321.47, 113.589, 0, 0, 11.13, 113.593, 11.13, -66.4074
186, 0.00000, 2309.34, 113.306, 0, 0, 15.4953, 113.311, 15.4953, -66.6893
187, 0.00000, 2297.64, 113.021, 0, 0, 17.7878, 113.021, 17.7878, -66.9787
188, 0.00000, 2298.24, 113.03, 0, 0, 17.3779, 113.03, 17.3779, -66.9702
189, 0.00000, 2303.38, 113.145, 0, 0, 17.24, 113.145, 17.24, -66.8549
190, 0.00000, 2311.54, 113.329, 0, 0, 15.0951, 113.329, 15.0951, -66.671
191, 0.00000, 2332.28, 113.819, 0, 0, 12.5905, 113.818, 12.5905, -66.1816
192, 0.00000, 2347.56, 114.194, 0, 0, 10.4872, 114.193, 10.4872, -65.8066
193, 0.00000, 2358.47, 114.448, 0, 0, 8.51103, 114.448, 8.51103, -65.5519
194, 0.00000, 2358.62, 114.449, 0, 0, 7.78471, 114.449, 7.78471, -65.5514
195, 0.00000, 2359.73, 114.479, 0, 0, 7.63356, 114.478, 7.63356, -65.5224
196, 0.00000, 2359.98, 114.485, 0, 0, 7.58052, 114.485, 7.58052, -65.5149
197, 0.00000, 2351.96, 114.298, 0, 0, 8.47821, 114.307, 8.47821, -65.6926
198, 0.00000, 2345.78, 114.155, 0, 0, 10.4136, 114.161, 10.4136, -65.8387
199, 0.00000, 2316.49, 113.46, 0, 0, 12.5129, 113.46, 12.5129, -66.5401
200, 0.00000, 2321.96, 113.585, 0, 0, 11.4041, 113.581, 11.4041, -66.4192
201, 0.00000, 2306.14, 113.195, 0, 0, 10.0224, 113.195, 10.0224, -66.8045
202, 0.00000, 2315.45, 113.417, 0, 0, 8.90513, 113.417, 8.90513, -66.5829
203, 0.00000, 2325.92, 113.68, 0, 0, 7.67024, 113.679, 7.67024, -66.3206
204, 0.00000, 2326.44, 113.696, 0, 0, 7.7136, 113.696, 7.7136, -66.3036
205, 0.00000, 2327.42, 113.722, 0, 0, 7.65337, 113.721, 7.65337, -66.2791
206, 0.00000, 2329.33, 113.766, 0, 0, 7.46974, 113.764, 7.46974, -66.2358
207, 0.00000, 2329.19, 113.762, 0, 0, 7.40416, 113.762, 7.40416, -66.2381
208, 0.00000, 2327.53, 113.724, 0, 0, 7.97325, 113.726, 7.97325, -66.2744
209, 0.00000, 2321.47, 113.589, 0, 0, 11.13, 113.593, 11.13, -66.4074
210, 0.00000, 2309.34, 113.306, 0, 0, 15.4953, 113.311, 15.4953, -66.6893
211, 0.00000, 2297.64, 113.021, 0, 0, 17.7878, 113.021, 17.7878, -66.9787
212, 0.00000, 2298.24, 113.03, 0, 0, 17.3779, 113.03, 17.3779, -66.9702
213, 0.00000, 2303.38, 113.145, 0, 0, 17.24, 113.145, 17.24, -66.8549
214, 0.00000, 2311.54, 113.329, 0, 0, 15.0951, 113.329, 15.0951, -66.671
215, 0.00000, 2332.28, 113.819, 0, 0, 12.5905, 113.818, 12.5905, -66.1816
216, 0.00000, 2347.56, 114.194, 0, 0, 10.4872, 114.193, 10.4872, -65.8066
217, 0.00000, 2358.47, 114.448, 0, 0, 8.51103, 114.448, 8.51103, -65.5519
218, 0.00000, 2358.62, 114.449, 0, 0, 7.78471, 114.449, 7.78471, -65.5514
219, 0.00000, 2359.73, 114.479, 0, 0, 7.63356, 114.478, 7.63356, -65.5224
220, 0.00000, 2359.98, 114.485, 0, 0, 7.58052, 114.485, 7.58052, -65.5149
221, 0.00000, 2351.96, 114.298, 0, 0, 8.47821, 114.307, 8.47821, -65.6926
222, 0.00000, 2345.78, 114.155, 0, 0, 10.4136, 114.161, 10.4136, -65.8387
223, 0.00000, 2316.49, 113.46, 0, 0, 12.5129, 113.46, 12.5129, -66.5401
224, 0.00000, 2321.96, 113.585, 0, 0, 11.4041, 113.581, 11.4041, -66.4192
225, 0.00000, 2306.14, 113.195, 0, 0, 10.0224, 113.195, 10.0224, -66.8045
226, 0.00000, 2315.45, 113.417, 0, 0, 8.90513, 113.417, 8.90513, -66.5829
227, 0.00000, 2325.92, 113.68, 0, 0, 7.67024, 113.679, 7.67024, -66.3206
228, 0.00000, 2326.44, 113.696, 0, 0, 7.7136, 113.696, 7.7136, -66.3036
229, 0.00000, 2327.42, 113.722, 0, 0, 7.65337, 113.721, 7.65337, -66.2791
230, 0.00000, 2329.33, 113.766, 0, 0, 7.46974, 113.764, 7.46974, -66.2358
231, 0.00000, 2329.19, 113.762, 0, 0, 7.40416, 113.762, 7.40416, -66.2381
232, 0.00000, 2327.53, 113.724, 0, 0, 7.97325, 113.726, 7.97325, -66.2744
233, 0.00000, 2321.47, 113.589, 0, 0, 11.13, 113.593, 11.13, -66.4074
234, 0.00000, 2309.34, 113.306, 0, 0, 15.4953, 113.311, 15.4953, -66.6893
235, 0.00000, 2297.64, 113.021, 0, 0, 17.7878, 113.021, 17.7878, -66.9787
236, 0.00000, 2298.24, 113.03, 0, 0, 17.3779, 113.03, 17.3779, -66.9702
237, 0.00000, 2303.38, 113.145, 0, 0, 17.24, 113.145, 17.24, -66.8549
238, 0.00000, 2311.54, 113.329, 0, 0, 15.0951, 113.329, 15.0951, -66.671
239, 0.00000, 2332.28, 113.819, 0, 0, 12.5905, 113.818, 12.5905, -66.1816
240, 0.00000, 2347.56, 114.194, 0, 0, 10.4872, 114.193, 10.4872, -65.8066
241, 0.00000, 2358.47, 114.448, 0, 0, 8.51103, 114.448, 8.51103, -65.5519
242, 0.00000, 2358.62, 114.449, 0, 0, 7.78471, 114.449, 7.78471, -65.5514
243, 0.00000, 2359.73, 114.479, 0, 0, 7.63356, 114.478, 7.63356, -65.5224
244, 0.00000, 2359.98, 114.485, 0, 0, 7.58052, 114.485, 7.58052, -65.5149
245, 0.00000, 2351.96, 114.298, 0, 0, 8.47821, 114.307, 8.47821, -65.6926
246, 0.00000, 2345.78, 114.155, 0, 0, 10.4136, 114.161, 10.4136, -65.8387
247, 0.00000, 2316.49, 113.46, 0, 0, 12.5129, 113.46, 12.5129, -66.5401
248, 0.00000, 2321.96, 113.585, 0, 0, 11.4041, 113.581, 11.4041, -66.4192
249, 0.00000, 2306.14, 113.195, 0, 0, 10.0224, 113.195, 10.0224, -66.8045
250, 0.00000, 2315.45, 113.417, 0, 0, 8.90513, 113.417, 8.90513, -66.5829
251, 0.00000, 2325.92, 113.68, 0, 0, 7.67024, 113.679, 7.67024, -66.3206
252, 0.00000, 2326.44, 113.696, 0, 0, 7.7136, 113.696, 7.7136, -66.3036
253, 0.00000, 2327.42, 113.722, 0, 0, 7.65337, 113.721, 7.65337, -66.2791
254, 0.00000, 2329.33, 113.766, 0, 0, 7.46974, 113.764, 7.46974, -66.2358
255, 0.00000, 2329.19, 113.762, 0, 0, 7.40416, 113.762, 7.40416, -66.2381
256, 0.00000, 2327.53, 113.724, 0, 0, 7.97325, 113.726, 7.97325, -66.2744
257, 0.00000, 2321.47, 113.589, 0, 0, 11.13, 113.593, 11.13, -66.4074
258, 0.00000, 2309.34, 113.306, 0, 0, 15.4953, 113.311, 15.4953, -66.6893
259, 0.00000, 2297.64, 113.021, 0, 0, 17.7878, 113.021, 17.7878, -66.9787
260, 0.00000, 2298.24, 113.03, 0, 0, 17.3779, 113.03, 17.3779, -66.9702
261, 0.00000, 2303.38, 113.145, 0, 0, 17.24, 113.145, 17.24, -66.8549
262, 0.00000, 2311.54, 113.329, 0, 0, 15.0951, 113.329, 15.0951, -66.671
263, 0.00000, 2332.28, 113.819, 0, 0, 12.5905, 113.818, 12.5905, -66.1816
264, 0.00000, 2347.56, 114.194, 0, 0, 10.4872, 114.193, 10.4872, -65.8066
265, 0.00000, 2358.47, 114.448, 0, 0, 8.51103, 114.448, 8.51103, -65.5519
266, 0.00000, 2358.62, 114.449, 0, 0, 7.78471, 114.449, 7.78471, -65.5514
267, 0.00000, 2359.73, 114.479, 0, 0, 7.63356, 114.478, 7.63356, -65.5224
268, 0.00000, 2359.98, 114.485, 0, 0, 7.58052, 114.485, 7.58052, -65.5149
269, 0.00000, 2351.96, 114.298, 0, 0, 8.47821, 114.307, 8.47821, -65.6926
270, 0.00000, 2345.78, 114.155, 0, 0, 10.4136, 114.161, 10.4136, -65.8387
271, 0.00000, 2316.49, 113.46, 0, 0, 12.5129, 113.46, 12.5129, -66.5401
272, 0.00000, 2321.96, 113.585, 0, 0, 11.4041, 113.581, 11.4041, -66.4192
273, 0.00000, 2306.14, 113.195, 0, 0, 10.0224, 113.195, 10.0224, -66.8045
