hour, t(sec), V1, VAngle1, V2, VAngle2, I1, IAngle1, I2, IAngle2
1, 0.00000, 2353.73, -122.774, 0, 0, 14.3173, -122.774, 14.3173, 57.2256
2, 0.00000, 2354.04, -122.768, 0, 0, 13.9727, -122.768, 13.9727, 57.2322
3, 0.00000, 2353.36, -122.782, 0, 0, 13.9767, -122.782, 13.9767, 57.2185
4, 0.00000, 2353.21, -122.785, 0, 0, 13.9776, -122.785, 13.9776, 57.2153
5, 0.00000, 2348.67, -122.873, 0, 0, 14.0044, -122.872, 14.0044, 57.1279
6, 0.00000, 2346.76, -122.91, 0, 0, 14.016, -122.909, 14.016, 57.0907
7, 0.00000, 2333.78, -123.161, 0, 0, 14.094, -123.161, 14.094, 56.8393
8, 0.00000, 2343.34, -122.958, 0, 0, 5.59046, -122.962, 5.59046, 57.0376
9, 0.00000, 2338.84, -123.037, 0, 0, 3.90863, -123.037, 3.90863, 56.9625
10, 0.00000, 2341.14, -122.995, 0, 0, 3.90479, -122.995, 3.90479, 57.0047
11, 0.00000, 2341.97, -122.983, 0, 0, 3.90341, -122.983, 3.90341, 57.0167
12, 0.00000, 2341.61, -122.991, 0, 0, 3.90402, -122.991, 3.90402, 57.009
13, 0.00000, 2342.24, -122.979, 0, 0, 3.90296, -122.98, 3.90296, 57.0203
14, 0.00000, 2343.38, -122.958, 0, 0, 3.90107, -122.958, 3.90107, 57.0418
15, 0.00000, 2343.19, -122.961, 0, 0, 3.90137, -122.961, 3.90137, 57.0389
16, 0.00000, 2342.45, -122.975, 0, 0, 3.90261, -122.975, 3.90261, 57.0251
17, 0.00000, 2341.38, -122.995, 0, 0, 3.90439, -122.994, 3.90439, 57.0058
18, 0.00000, 2335.71, -123.112, 0, 0, 8.99802, -123.11, 8.99802, 56.8898
19, 0.00000, 2331.9, -123.194, 0, 0, 14.1054, -123.194, 14.1054, 56.8063
20, 0.00000, 2332.98, -123.172, 0, 0, 14.0988, -123.172, 14.0988, 56.8275
21, 0.00000, 2337.47, -123.086, 0, 0, 14.0717, -123.086, 14.0717, 56.9138
22, 0.00000, 2340.5, -123.028, 0, 0, 14.0689, -123.028, 14.0689, 56.9717
23, 0.00000, 2346.73, -122.911, 0, 0, 14.6639, -122.911, 14.6639, 57.0891
24, 0.00000, 2349.06, -122.869, 0, 0, 14.9807, -122.869, 14.9807, 57.1306
25, 0.00000, 2353.75, -122.777, 0, 0, 14.3171, -122.778, 14.3171, 57.2224
26, 0.00000, 2354.06, -122.771, 0, 0, 13.9726, -122.771, 13.9726, 57.2289
27, 0.00000, 2353.38, -122.785, 0, 0, 13.9766, -122.784, 13.9766, 57.2156
28, 0.00000, 2353.24, -122.788, 0, 0, 13.9775, -122.788, 13.9775, 57.2122
29, 0.00000, 2348.7, -122.876, 0, 0, 14.0042, -122.873, 14.0042, 57.1272
30, 0.00000, 2346.78, -122.913, 0, 0, 14.0158, -122.911, 14.0158, 57.0886
31, 0.00000, 2333.78, -123.161, 0, 0, 14.094, -123.161, 14.094, 56.8394
32, 0.00000, 2343.34, -122.958, 0, 0, 5.59046, -122.962, 5.59046, 57.0376
33, 0.00000, 2338.84, -123.037, 0, 0, 3.90863, -123.037, 3.90863, 56.9625
34, 0.00000, 2341.14, -122.995, 0, 0, 3.90479, -122.995, 3.90479, 57.0047
35, 0.00000, 2341.97, -122.983, 0, 0, 3.90341, -122.983, 3.90341, 57.0167
36, 0.00000, 2341.61, -122.991, 0, 0, 3.90402, -122.991, 3.90402, 57.009
37, 0.00000, 2342.24, -122.979, 0, 0, 3.90296, -122.98, 3.90296, 57.0203
38, 0.00000, 2343.38, -122.958, 0, 0, 3.90107, -122.958, 3.90107, 57.0418
39, 0.00000, 2343.19, -122.961, 0, 0, 3.90137, -122.961, 3.90137, 57.0389
40, 0.00000, 2342.45, -122.975, 0, 0, 3.90261, -122.975, 3.90261, 57.0251
41, 0.00000, 2341.38, -122.995, 0, 0, 3.90439, -122.994, 3.90439, 57.0058
42, 0.00000, 2335.71, -123.112, 0, 0, 8.99802, -123.11, 8.99802, 56.8898
43, 0.00000, 2331.9, -123.194, 0, 0, 14.1054, -123.194, 14.1054, 56.8063
44, 0.00000, 2332.98, -123.172, 0, 0, 14.0988, -123.172, 14.0988, 56.8275
45, 0.00000, 2337.47, -123.086, 0, 0, 14.0717, -123.086, 14.0717, 56.9138
46, 0.00000, 2340.5, -123.028, 0, 0, 14.0689, -123.028, 14.0689, 56.9717
47, 0.00000, 2346.73, -122.911, 0, 0, 14.6639, -122.911, 14.6639, 57.0891
48, 0.00000, 2349.06, -122.869, 0, 0, 14.9807, -122.869, 14.9807, 57.1306
49, 0.00000, 2353.75, -122.777, 0, 0, 14.3171, -122.778, 14.3171, 57.2224
50, 0.00000, 2354.06, -122.771, 0, 0, 13.9726, -122.771, 13.9726, 57.2289
51, 0.00000, 2353.38, -122.785, 0, 0, 13.9766, -122.784, 13.9766, 57.2156
52, 0.00000, 2353.24, -122.788, 0, 0, 13.9775, -122.788, 13.9775, 57.2122
53, 0.00000, 2348.7, -122.876, 0, 0, 14.0042, -122.873, 14.0042, 57.1272
54, 0.00000, 2346.78, -122.913, 0, 0, 14.0158, -122.911, 14.0158, 57.0886
55, 0.00000, 2333.78, -123.161, 0, 0, 14.094, -123.161, 14.094, 56.8394
56, 0.00000, 2343.34, -122.958, 0, 0, 5.59046, -122.962, 5.59046, 57.0376
57, 0.00000, 2338.84, -123.037, 0, 0, 3.90863, -123.037, 3.90863, 56.9625
58, 0.00000, 2341.14, -122.995, 0, 0, 3.90479, -122.995, 3.90479, 57.0047
59, 0.00000, 2341.97, -122.983, 0, 0, 3.90341, -122.983, 3.90341, 57.0167
60, 0.00000, 2341.61, -122.991, 0, 0, 3.90402, -122.991, 3.90402, 57.009
61, 0.00000, 2342.24, -122.979, 0, 0, 3.90296, -122.98, 3.90296, 57.0203
62, 0.00000, 2343.38, -122.958, 0, 0, 3.90107, -122.958, 3.90107, 57.0418
63, 0.00000, 2343.19, -122.961, 0, 0, 3.90137, -122.961, 3.90137, 57.0389
64, 0.00000, 2342.45, -122.975, 0, 0, 3.90261, -122.975, 3.90261, 57.0251
65, 0.00000, 2341.38, -122.995, 0, 0, 3.90439, -122.994, 3.90439, 57.0058
66, 0.00000, 2335.71, -123.112, 0, 0, 8.99802, -123.11, 8.99802, 56.8898
67, 0.00000, 2331.9, -123.194, 0, 0, 14.1054, -123.194, 14.1054, 56.8063
68, 0.00000, 2332.98, -123.172, 0, 0, 14.0988, -123.172, 14.0988, 56.8275
69, 0.00000, 2337.47, -123.086, 0, 0, 14.0717, -123.086, 14.0717, 56.9138
70, 0.00000, 2340.5, -123.028, 0, 0, 14.0689, -123.028, 14.0689, 56.9717
71, 0.00000, 2346.73, -122.911, 0, 0, 14.6639, -122.911, 14.6639, 57.0891
72, 0.00000, 2349.06, -122.869, 0, 0, 14.9807, -122.869, 14.9807, 57.1306
73, 0.00000, 2353.75, -122.777, 0, 0, 14.3171, -122.778, 14.3171, 57.2224
74, 0.00000, 2354.06, -122.771, 0, 0, 13.9726, -122.771, 13.9726, 57.2289
75, 0.00000, 2353.38, -122.785, 0, 0, 13.9766, -122.784, 13.9766, 57.2156
76, 0.00000, 2353.24, -122.788, 0, 0, 13.9775, -122.788, 13.9775, 57.2122
77, 0.00000, 2348.7, -122.876, 0, 0, 14.0042, -122.873, 14.0042, 57.1272
78, 0.00000, 2346.78, -122.913, 0, 0, 14.0158, -122.911, 14.0158, 57.0886
79, 0.00000, 2333.78, -123.161, 0, 0, 14.094, -123.161, 14.094, 56.8394
80, 0.00000, 2343.34, -122.958, 0, 0, 5.59046, -122.962, 5.59046, 57.0376
81, 0.00000, 2338.84, -123.037, 0, 0, 3.90863, -123.037, 3.90863, 56.9625
82, 0.00000, 2341.14, -122.995, 0, 0, 3.90479, -122.995, 3.90479, 57.0047
83, 0.00000, 2341.97, -122.983, 0, 0, 3.90341, -122.983, 3.90341, 57.0167
84, 0.00000, 2341.61, -122.991, 0, 0, 3.90402, -122.991, 3.90402, 57.009
85, 0.00000, 2342.24, -122.979, 0, 0, 3.90296, -122.98, 3.90296, 57.0203
86, 0.00000, 2343.38, -122.958, 0, 0, 3.90107, -122.958, 3.90107, 57.0418
87, 0.00000, 2343.19, -122.961, 0, 0, 3.90137, -122.961, 3.90137, 57.0389
88, 0.00000, 2342.45, -122.975, 0, 0, 3.90261, -122.975, 3.90261, 57.0251
89, 0.00000, 2341.38, -122.995, 0, 0, 3.90439, -122.994, 3.90439, 57.0058
90, 0.00000, 2335.71, -123.112, 0, 0, 8.99802, -123.11, 8.99802, 56.8898
91, 0.00000, 2331.9, -123.194, 0, 0, 14.1054, -123.194, 14.1054, 56.8063
92, 0.00000, 2332.98, -123.172, 0, 0, 14.0988, -123.172, 14.0988, 56.8275
93, 0.00000, 2337.47, -123.086, 0, 0, 14.0717, -123.086, 14.0717, 56.9138
94, 0.00000, 2340.5, -123.028, 0, 0, 14.0689, -123.028, 14.0689, 56.9717
95, 0.00000, 2346.73, -122.911, 0, 0, 14.6639, -122.911, 14.6639, 57.0891
96, 0.00000, 2349.06, -122.869, 0, 0, 14.9807, -122.869, 14.9807, 57.1306
97, 0.00000, 2353.75, -122.777, 0, 0, 14.3171, -122.778, 14.3171, 57.2224
98, 0.00000, 2354.06, -122.771, 0, 0, 13.9726, -122.771, 13.9726, 57.2289
99, 0.00000, 2353.38, -122.785, 0, 0, 13.9766, -122.784, 13.9766, 57.2156
100, 0.00000, 2353.24, -122.788, 0, 0, 13.9775, -122.788, 13.9775, 57.2122
101, 0.00000, 2348.7, -122.876, 0, 0, 14.0042, -122.873, 14.0042, 57.1272
102, 0.00000, 2346.78, -122.913, 0, 0, 14.0158, -122.911, 14.0158, 57.0886
103, 0.00000, 2333.78, -123.161, 0, 0, 14.094, -123.161, 14.094, 56.8394
104, 0.00000, 2343.34, -122.958, 0, 0, 5.59046, -122.962, 5.59046, 57.0376
105, 0.00000, 2338.84, -123.037, 0, 0, 3.90863, -123.037, 3.90863, 56.9625
106, 0.00000, 2341.14, -122.995, 0, 0, 3.90479, -122.995, 3.90479, 57.0047
107, 0.00000, 2341.97, -122.983, 0, 0, 3.90341, -122.983, 3.90341, 57.0167
108, 0.00000, 2341.61, -122.991, 0, 0, 3.90402, -122.991, 3.90402, 57.009
109, 0.00000, 2342.24, -122.979, 0, 0, 3.90296, -122.98, 3.90296, 57.0203
110, 0.00000, 2343.38, -122.958, 0, 0, 3.90107, -122.958, 3.90107, 57.0418
111, 0.00000, 2343.19, -122.961, 0, 0, 3.90137, -122.961, 3.90137, 57.0389
112, 0.00000, 2342.45, -122.975, 0, 0, 3.90261, -122.975, 3.90261, 57.0251
113, 0.00000, 2341.38, -122.995, 0, 0, 3.90439, -122.994, 3.90439, 57.0058
114, 0.00000, 2335.71, -123.112, 0, 0, 8.99802, -123.11, 8.99802, 56.8898
115, 0.00000, 2331.9, -123.194, 0, 0, 14.1054, -123.194, 14.1054, 56.8063
116, 0.00000, 2332.98, -123.172, 0, 0, 14.0988, -123.172, 14.0988, 56.8275
117, 0.00000, 2337.47, -123.086, 0, 0, 14.0717, -123.086, 14.0717, 56.9138
118, 0.00000, 2340.5, -123.028, 0, 0, 14.0689, -123.028, 14.0689, 56.9717
119, 0.00000, 2346.73, -122.911, 0, 0, 14.6639, -122.911, 14.6639, 57.0891
120, 0.00000, 2349.06, -122.869, 0, 0, 14.9807, -122.869, 14.9807, 57.1306
121, 0.00000, 2353.75, -122.777, 0, 0, 14.3171, -122.778, 14.3171, 57.2224
122, 0.00000, 2354.06, -122.771, 0, 0, 13.9726, -122.771, 13.9726, 57.2289
123, 0.00000, 2353.38, -122.785, 0, 0, 13.9766, -122.784, 13.9766, 57.2156
124, 0.00000, 2353.24, -122.788, 0, 0, 13.9775, -122.788, 13.9775, 57.2122
125, 0.00000, 2348.7, -122.876, 0, 0, 14.0042, -122.873, 14.0042, 57.1272
126, 0.00000, 2346.78, -122.913, 0, 0, 14.0158, -122.911, 14.0158, 57.0886
127, 0.00000, 2333.78, -123.161, 0, 0, 14.094, -123.161, 14.094, 56.8394
128, 0.00000, 2343.34, -122.958, 0, 0, 5.59046, -122.962, 5.59046, 57.0376
129, 0.00000, 2338.84, -123.037, 0, 0, 3.90863, -123.037, 3.90863, 56.9625
130, 0.00000, 2341.14, -122.995, 0, 0, 3.90479, -122.995, 3.90479, 57.0047
131, 0.00000, 2341.97, -122.983, 0, 0, 3.90341, -122.983, 3.90341, 57.0167
132, 0.00000, 2341.61, -122.991, 0, 0, 3.90402, -122.991, 3.90402, 57.009
133, 0.00000, 2342.24, -122.979, 0, 0, 3.90296, -122.98, 3.90296, 57.0203
134, 0.00000, 2343.38, -122.958, 0, 0, 3.90107, -122.958, 3.90107, 57.0418
135, 0.00000, 2343.19, -122.961, 0, 0, 3.90137, -122.961, 3.90137, 57.0389
136, 0.00000, 2342.45, -122.975, 0, 0, 3.90261, -122.975, 3.90261, 57.0251
137, 0.00000, 2341.38, -122.995, 0, 0, 3.90439, -122.994, 3.90439, 57.0058
138, 0.00000, 2335.71, -123.112, 0, 0, 8.99802, -123.11, 8.99802, 56.8898
139, 0.00000, 2331.9, -123.194, 0, 0, 14.1054, -123.194, 14.1054, 56.8063
140, 0.00000, 2332.98, -123.172, 0, 0, 14.0988, -123.172, 14.0988, 56.8275
141, 0.00000, 2337.47, -123.086, 0, 0, 14.0717, -123.086, 14.0717, 56.9138
142, 0.00000, 2340.5, -123.028, 0, 0, 14.0689, -123.028, 14.0689, 56.9717
143, 0.00000, 2346.73, -122.911, 0, 0, 14.6639, -122.911, 14.6639, 57.0891
144, 0.00000, 2349.06, -122.869, 0, 0, 14.9807, -122.869, 14.9807, 57.1306
145, 0.00000, 2353.75, -122.777, 0, 0, 14.3171, -122.778, 14.3171, 57.2224
146, 0.00000, 2354.06, -122.771, 0, 0, 13.9726, -122.771, 13.9726, 57.2289
147, 0.00000, 2353.38, -122.785, 0, 0, 13.9766, -122.784, 13.9766, 57.2156
148, 0.00000, 2353.24, -122.788, 0, 0, 13.9775, -122.788, 13.9775, 57.2122
149, 0.00000, 2348.7, -122.876, 0, 0, 14.0042, -122.873, 14.0042, 57.1272
150, 0.00000, 2346.78, -122.913, 0, 0, 14.0158, -122.911, 14.0158, 57.0886
151, 0.00000, 2333.78, -123.161, 0, 0, 14.094, -123.161, 14.094, 56.8394
152, 0.00000, 2343.34, -122.958, 0, 0, 5.59046, -122.962, 5.59046, 57.0376
153, 0.00000, 2338.84, -123.037, 0, 0, 3.90863, -123.037, 3.90863, 56.9625
154, 0.00000, 2341.14, -122.995, 0, 0, 3.90479, -122.995, 3.90479, 57.0047
155, 0.00000, 2341.97, -122.983, 0, 0, 3.90341, -122.983, 3.90341, 57.0167
156, 0.00000, 2341.61, -122.991, 0, 0, 3.90402, -122.991, 3.90402, 57.009
157, 0.00000, 2342.24, -122.979, 0, 0, 3.90296, -122.98, 3.90296, 57.0203
158, 0.00000, 2343.38, -122.958, 0, 0, 3.90107, -122.958, 3.90107, 57.0418
159, 0.00000, 2343.19, -122.961, 0, 0, 3.90137, -122.961, 3.90137, 57.0389
160, 0.00000, 2342.45, -122.975, 0, 0, 3.90261, -122.975, 3.90261, 57.0251
161, 0.00000, 2341.38, -122.995, 0, 0, 3.90439, -122.994, 3.90439, 57.0058
162, 0.00000, 2335.71, -123.112, 0, 0, 8.99802, -123.11, 8.99802, 56.8898
163, 0.00000, 2331.9, -123.194, 0, 0, 14.1054, -123.194, 14.1054, 56.8063
164, 0.00000, 2332.98, -123.172, 0, 0, 14.0988, -123.172, 14.0988, 56.8275
165, 0.00000, 2337.47, -123.086, 0, 0, 14.0717, -123.086, 14.0717, 56.9138
166, 0.00000, 2340.5, -123.028, 0, 0, 14.0689, -123.028, 14.0689, 56.9717
167, 0.00000, 2346.73, -122.911, 0, 0, 14.6639, -122.911, 14.6639, 57.0891
168, 0.00000, 2349.06, -122.869, 0, 0, 14.9807, -122.869, 14.9807, 57.1306
169, 0.00000, 2353.75, -122.777, 0, 0, 14.3171, -122.778, 14.3171, 57.2224
170, 0.00000, 2354.06, -122.771, 0, 0, 13.9726, -122.771, 13.9726, 57.2289
171, 0.00000, 2353.38, -122.785, 0, 0, 13.9766, -122.784, 13.9766, 57.2156
172, 0.00000, 2353.24, -122.788, 0, 0, 13.9775, -122.788, 13.9775, 57.2122
173, 0.00000, 2348.7, -122.876, 0, 0, 14.0042, -122.873, 14.0042, 57.1272
174, 0.00000, 2346.78, -122.913, 0, 0, 14.0158, -122.911, 14.0158, 57.0886
175, 0.00000, 2333.78, -123.161, 0, 0, 14.094, -123.161, 14.094, 56.8394
176, 0.00000, 2343.34, -122.958, 0, 0, 5.59046, -122.962, 5.59046, 57.0376
177, 0.00000, 2338.84, -123.037, 0, 0, 3.90863, -123.037, 3.90863, 56.9625
178, 0.00000, 2341.14, -122.995, 0, 0, 3.90479, -122.995, 3.90479, 57.0047
179, 0.00000, 2341.97, -122.983, 0, 0, 3.90341, -122.983, 3.90341, 57.0167
180, 0.00000, 2341.61, -122.991, 0, 0, 3.90402, -122.991, 3.90402, 57.009
181, 0.00000, 2342.24, -122.979, 0, 0, 3.90296, -122.98, 3.90296, 57.0203
182, 0.00000, 2343.38, -122.958, 0, 0, 3.90107, -122.958, 3.90107, 57.0418
183, 0.00000, 2343.19, -122.961, 0, 0, 3.90137, -122.961, 3.90137, 57.0389
184, 0.00000, 2342.45, -122.975, 0, 0, 3.90261, -122.975, 3.90261, 57.0251
185, 0.00000, 2341.38, -122.995, 0, 0, 3.90439, -122.994, 3.90439, 57.0058
186, 0.00000, 2335.71, -123.112, 0, 0, 8.99802, -123.11, 8.99802, 56.8898
187, 0.00000, 2331.9, -123.194, 0, 0, 14.1054, -123.194, 14.1054, 56.8063
188, 0.00000, 2332.98, -123.172, 0, 0, 14.0988, -123.172, 14.0988, 56.8275
189, 0.00000, 2337.47, -123.086, 0, 0, 14.0717, -123.086, 14.0717, 56.9138
190, 0.00000, 2340.5, -123.028, 0, 0, 14.0689, -123.028, 14.0689, 56.9717
191, 0.00000, 2346.73, -122.911, 0, 0, 14.6639, -122.911, 14.6639, 57.0891
192, 0.00000, 2349.06, -122.869, 0, 0, 14.9807, -122.869, 14.9807, 57.1306
193, 0.00000, 2353.75, -122.777, 0, 0, 14.3171, -122.778, 14.3171, 57.2224
194, 0.00000, 2354.06, -122.771, 0, 0, 13.9726, -122.771, 13.9726, 57.2289
195, 0.00000, 2353.38, -122.785, 0, 0, 13.9766, -122.784, 13.9766, 57.2156
196, 0.00000, 2353.24, -122.788, 0, 0, 13.9775, -122.788, 13.9775, 57.2122
197, 0.00000, 2348.7, -122.876, 0, 0, 14.0042, -122.873, 14.0042, 57.1272
198, 0.00000, 2346.78, -122.913, 0, 0, 14.0158, -122.911, 14.0158, 57.0886
199, 0.00000, 2333.78, -123.161, 0, 0, 14.094, -123.161, 14.094, 56.8394
200, 0.00000, 2343.34, -122.958, 0, 0, 5.59046, -122.962, 5.59046, 57.0376
201, 0.00000, 2338.84, -123.037, 0, 0, 3.90863, -123.037, 3.90863, 56.9625
202, 0.00000, 2341.14, -122.995, 0, 0, 3.90479, -122.995, 3.90479, 57.0047
203, 0.00000, 2341.97, -122.983, 0, 0, 3.90341, -122.983, 3.90341, 57.0167
204, 0.00000, 2341.61, -122.991, 0, 0, 3.90402, -122.991, 3.90402, 57.009
205, 0.00000, 2342.24, -122.979, 0, 0, 3.90296, -122.98, 3.90296, 57.0203
206, 0.00000, 2343.38, -122.958, 0, 0, 3.90107, -122.958, 3.90107, 57.0418
207, 0.00000, 2343.19, -122.961, 0, 0, 3.90137, -122.961, 3.90137, 57.0389
208, 0.00000, 2342.45, -122.975, 0, 0, 3.90261, -122.975, 3.90261, 57.0251
209, 0.00000, 2341.38, -122.995, 0, 0, 3.90439, -122.994, 3.90439, 57.0058
210, 0.00000, 2335.71, -123.112, 0, 0, 8.99802, -123.11, 8.99802, 56.8898
211, 0.00000, 2331.9, -123.194, 0, 0, 14.1054, -123.194, 14.1054, 56.8063
212, 0.00000, 2332.98, -123.172, 0, 0, 14.0988, -123.172, 14.0988, 56.8275
213, 0.00000, 2337.47, -123.086, 0, 0, 14.0717, -123.086, 14.0717, 56.9138
214, 0.00000, 2340.5, -123.028, 0, 0, 14.0689, -123.028, 14.0689, 56.9717
215, 0.00000, 2346.73, -122.911, 0, 0, 14.6639, -122.911, 14.6639, 57.0891
216, 0.00000, 2349.06, -122.869, 0, 0, 14.9807, -122.869, 14.9807, 57.1306
217, 0.00000, 2353.75, -122.777, 0, 0, 14.3171, -122.778, 14.3171, 57.2224
218, 0.00000, 2354.06, -122.771, 0, 0, 13.9726, -122.771, 13.9726, 57.2289
219, 0.00000, 2353.38, -122.785, 0, 0, 13.9766, -122.784, 13.9766, 57.2156
220, 0.00000, 2353.24, -122.788, 0, 0, 13.9775, -122.788, 13.9775, 57.2122
221, 0.00000, 2348.7, -122.876, 0, 0, 14.0042, -122.873, 14.0042, 57.1272
222, 0.00000, 2346.78, -122.913, 0, 0, 14.0158, -122.911, 14.0158, 57.0886
223, 0.00000, 2333.78, -123.161, 0, 0, 14.094, -123.161, 14.094, 56.8394
224, 0.00000, 2343.34, -122.958, 0, 0, 5.59046, -122.962, 5.59046, 57.0376
225, 0.00000, 2338.84, -123.037, 0, 0, 3.90863, -123.037, 3.90863, 56.9625
226, 0.00000, 2341.14, -122.995, 0, 0, 3.90479, -122.995, 3.90479, 57.0047
227, 0.00000, 2341.97, -122.983, 0, 0, 3.90341, -122.983, 3.90341, 57.0167
228, 0.00000, 2341.61, -122.991, 0, 0, 3.90402, -122.991, 3.90402, 57.009
229, 0.00000, 2342.24, -122.979, 0, 0, 3.90296, -122.98, 3.90296, 57.0203
230, 0.00000, 2343.38, -122.958, 0, 0, 3.90107, -122.958, 3.90107, 57.0418
231, 0.00000, 2343.19, -122.961, 0, 0, 3.90137, -122.961, 3.90137, 57.0389
232, 0.00000, 2342.45, -122.975, 0, 0, 3.90261, -122.975, 3.90261, 57.0251
233, 0.00000, 2341.38, -122.995, 0, 0, 3.90439, -122.994, 3.90439, 57.0058
234, 0.00000, 2335.71, -123.112, 0, 0, 8.99802, -123.11, 8.99802, 56.8898
235, 0.00000, 2331.9, -123.194, 0, 0, 14.1054, -123.194, 14.1054, 56.8063
236, 0.00000, 2332.98, -123.172, 0, 0, 14.0988, -123.172, 14.0988, 56.8275
237, 0.00000, 2337.47, -123.086, 0, 0, 14.0717, -123.086, 14.0717, 56.9138
238, 0.00000, 2340.5, -123.028, 0, 0, 14.0689, -123.028, 14.0689, 56.9717
239, 0.00000, 2346.73, -122.911, 0, 0, 14.6639, -122.911, 14.6639, 57.0891
240, 0.00000, 2349.06, -122.869, 0, 0, 14.9807, -122.869, 14.9807, 57.1306
241, 0.00000, 2353.75, -122.777, 0, 0, 14.3171, -122.778, 14.3171, 57.2224
242, 0.00000, 2354.06, -122.771, 0, 0, 13.9726, -122.771, 13.9726, 57.2289
243, 0.00000, 2353.38, -122.785, 0, 0, 13.9766, -122.784, 13.9766, 57.2156
244, 0.00000, 2353.24, -122.788, 0, 0, 13.9775, -122.788, 13.9775, 57.2122
245, 0.00000, 2348.7, -122.876, 0, 0, 14.0042, -122.873, 14.0042, 57.1272
246, 0.00000, 2346.78, -122.913, 0, 0, 14.0158, -122.911, 14.0158, 57.0886
247, 0.00000, 2333.78, -123.161, 0, 0, 14.094, -123.161, 14.094, 56.8394
248, 0.00000, 2343.34, -122.958, 0, 0, 5.59046, -122.962, 5.59046, 57.0376
249, 0.00000, 2338.84, -123.037, 0, 0, 3.90863, -123.037, 3.90863, 56.9625
250, 0.00000, 2341.14, -122.995, 0, 0, 3.90479, -122.995, 3.90479, 57.0047
251, 0.00000, 2341.97, -122.983, 0, 0, 3.90341, -122.983, 3.90341, 57.0167
252, 0.00000, 2341.61, -122.991, 0, 0, 3.90402, -122.991, 3.90402, 57.009
253, 0.00000, 2342.24, -122.979, 0, 0, 3.90296, -122.98, 3.90296, 57.0203
254, 0.00000, 2343.38, -122.958, 0, 0, 3.90107, -122.958, 3.90107, 57.0418
255, 0.00000, 2343.19, -122.961, 0, 0, 3.90137, -122.961, 3.90137, 57.0389
256, 0.00000, 2342.45, -122.975, 0, 0, 3.90261, -122.975, 3.90261, 57.0251
257, 0.00000, 2341.38, -122.995, 0, 0, 3.90439, -122.994, 3.90439, 57.0058
258, 0.00000, 2335.71, -123.112, 0, 0, 8.99802, -123.11, 8.99802, 56.8898
259, 0.00000, 2331.9, -123.194, 0, 0, 14.1054, -123.194, 14.1054, 56.8063
260, 0.00000, 2332.98, -123.172, 0, 0, 14.0988, -123.172, 14.0988, 56.8275
261, 0.00000, 2337.47, -123.086, 0, 0, 14.0717, -123.086, 14.0717, 56.9138
262, 0.00000, 2340.5, -123.028, 0, 0, 14.0689, -123.028, 14.0689, 56.9717
263, 0.00000, 2346.73, -122.911, 0, 0, 14.6639, -122.911, 14.6639, 57.0891
264, 0.00000, 2349.06, -122.869, 0, 0, 14.9807, -122.869, 14.9807, 57.1306
265, 0.00000, 2353.75, -122.777, 0, 0, 14.3171, -122.778, 14.3171, 57.2224
266, 0.00000, 2354.06, -122.771, 0, 0, 13.9726, -122.771, 13.9726, 57.2289
267, 0.00000, 2353.38, -122.785, 0, 0, 13.9766, -122.784, 13.9766, 57.2156
268, 0.00000, 2353.24, -122.788, 0, 0, 13.9775, -122.788, 13.9775, 57.2122
