hour, t(sec), V1, VAngle1, V2, VAngle2, I1, IAngle1, I2, IAngle2
1, 0.00000, 2336.93, -123.659, 0, 0, 4.25407, -123.662, 4.25407, 56.3376
2, 0.00000, 2337.27, -123.652, 0, 0, 3.89012, -123.652, 3.89012, 56.3483
3, 0.00000, 2336.38, -123.671, 0, 0, 3.81424, -123.67, 3.81424, 56.3295
4, 0.00000, 2336.19, -123.675, 0, 0, 3.78765, -123.675, 3.78765, 56.3252
5, 0.00000, 2330.23, -123.796, 0, 0, 4.26129, -123.795, 4.26129, 56.2054
6, 0.00000, 2327.71, -123.846, 0, 0, 5.25363, -123.845, 5.25363, 56.1547
7, 0.00000, 2310.63, -124.185, 0, 0, 6.43996, -124.185, 6.43996, 55.8148
8, 0.00000, 2320.73, -123.97, 0, 0, 5.83036, -123.97, 5.83036, 56.0305
9, 0.00000, 2314.34, -124.091, 0, 0, 5.17303, -124.091, 5.17303, 55.909
10, 0.00000, 2317.35, -124.033, 0, 0, 4.57193, -124.033, 4.57193, 55.967
11, 0.00000, 2318.45, -124.016, 0, 0, 3.91835, -124.016, 3.91835, 55.9836
12, 0.00000, 2317.98, -124.027, 0, 0, 3.94044, -124.027, 3.94044, 55.9729
13, 0.00000, 2318.81, -124.011, 0, 0, 3.90664, -124.011, 3.90664, 55.989
14, 0.00000, 2320.31, -123.981, 0, 0, 3.80733, -123.981, 3.80733, 56.0191
15, 0.00000, 2320.06, -123.986, 0, 0, 3.77449, -123.986, 3.77449, 56.014
16, 0.00000, 2319.08, -124.005, 0, 0, 4.06918, -124.006, 4.06918, 55.9944
17, 0.00000, 2317.67, -124.032, 0, 0, 5.69841, -124.032, 5.69841, 55.9676
18, 0.00000, 2311.69, -124.156, 0, 0, 7.99516, -124.157, 7.99516, 55.843
19, 0.00000, 2308.15, -124.231, 0, 0, 9.23976, -124.231, 9.23976, 55.7694
20, 0.00000, 2309.58, -124.201, 0, 0, 9.019, -124.201, 9.019, 55.7986
21, 0.00000, 2315.47, -124.083, 0, 0, 8.90473, -124.083, 8.90473, 55.917
22, 0.00000, 2319.45, -124.004, 0, 0, 7.75602, -124.004, 7.75602, 55.9964
23, 0.00000, 2327.75, -123.84, 0, 0, 6.38873, -123.84, 6.38873, 56.1603
24, 0.00000, 2330.88, -123.782, 0, 0, 5.27972, -123.782, 5.27972, 56.2177
25, 0.00000, 2336.93, -123.659, 0, 0, 4.25395, -123.659, 4.25395, 56.341
26, 0.00000, 2337.27, -123.652, 0, 0, 3.89012, -123.652, 3.89012, 56.3483
27, 0.00000, 2336.38, -123.671, 0, 0, 3.81424, -123.67, 3.81424, 56.3295
28, 0.00000, 2336.19, -123.675, 0, 0, 3.78765, -123.675, 3.78765, 56.3252
29, 0.00000, 2330.23, -123.796, 0, 0, 4.26129, -123.795, 4.26129, 56.2054
30, 0.00000, 2327.71, -123.846, 0, 0, 5.25363, -123.845, 5.25363, 56.1547
31, 0.00000, 2310.63, -124.185, 0, 0, 6.43996, -124.185, 6.43996, 55.8148
32, 0.00000, 2320.73, -123.97, 0, 0, 5.83036, -123.97, 5.83036, 56.0305
33, 0.00000, 2314.34, -124.091, 0, 0, 5.17303, -124.091, 5.17303, 55.909
34, 0.00000, 2317.35, -124.033, 0, 0, 4.57193, -124.033, 4.57193, 55.967
35, 0.00000, 2318.45, -124.016, 0, 0, 3.91835, -124.016, 3.91835, 55.9836
36, 0.00000, 2317.98, -124.027, 0, 0, 3.94044, -124.027, 3.94044, 55.9729
37, 0.00000, 2318.81, -124.011, 0, 0, 3.90664, -124.011, 3.90664, 55.989
38, 0.00000, 2320.31, -123.981, 0, 0, 3.80733, -123.981, 3.80733, 56.0191
39, 0.00000, 2320.06, -123.986, 0, 0, 3.77449, -123.986, 3.77449, 56.014
40, 0.00000, 2319.08, -124.005, 0, 0, 4.06918, -124.006, 4.06918, 55.9944
41, 0.00000, 2317.67, -124.032, 0, 0, 5.69841, -124.032, 5.69841, 55.9676
42, 0.00000, 2311.69, -124.156, 0, 0, 7.99516, -124.157, 7.99516, 55.843
43, 0.00000, 2308.15, -124.231, 0, 0, 9.23976, -124.231, 9.23976, 55.7694
44, 0.00000, 2309.58, -124.201, 0, 0, 9.019, -124.201, 9.019, 55.7986
45, 0.00000, 2315.47, -124.083, 0, 0, 8.90473, -124.083, 8.90473, 55.917
46, 0.00000, 2319.45, -124.004, 0, 0, 7.75602, -124.004, 7.75602, 55.9964
47, 0.00000, 2327.75, -123.84, 0, 0, 6.38873, -123.84, 6.38873, 56.1603
48, 0.00000, 2330.88, -123.782, 0, 0, 5.27972, -123.782, 5.27972, 56.2177
49, 0.00000, 2336.93, -123.659, 0, 0, 4.25395, -123.659, 4.25395, 56.341
50, 0.00000, 2337.27, -123.652, 0, 0, 3.89012, -123.652, 3.89012, 56.3483
51, 0.00000, 2336.38, -123.671, 0, 0, 3.81424, -123.67, 3.81424, 56.3295
52, 0.00000, 2336.19, -123.675, 0, 0, 3.78765, -123.675, 3.78765, 56.3252
53, 0.00000, 2330.23, -123.796, 0, 0, 4.26129, -123.795, 4.26129, 56.2054
54, 0.00000, 2327.71, -123.846, 0, 0, 5.25363, -123.845, 5.25363, 56.1547
55, 0.00000, 2310.63, -124.185, 0, 0, 6.43996, -124.185, 6.43996, 55.8148
56, 0.00000, 2320.73, -123.97, 0, 0, 5.83036, -123.97, 5.83036, 56.0305
57, 0.00000, 2314.34, -124.091, 0, 0, 5.17303, -124.091, 5.17303, 55.909
58, 0.00000, 2317.35, -124.033, 0, 0, 4.57193, -124.033, 4.57193, 55.967
59, 0.00000, 2318.45, -124.016, 0, 0, 3.91835, -124.016, 3.91835, 55.9836
60, 0.00000, 2317.98, -124.027, 0, 0, 3.94044, -124.027, 3.94044, 55.9729
61, 0.00000, 2318.81, -124.011, 0, 0, 3.90664, -124.011, 3.90664, 55.989
62, 0.00000, 2320.31, -123.981, 0, 0, 3.80733, -123.981, 3.80733, 56.0191
63, 0.00000, 2320.06, -123.986, 0, 0, 3.77449, -123.986, 3.77449, 56.014
64, 0.00000, 2319.08, -124.005, 0, 0, 4.06918, -124.006, 4.06918, 55.9944
65, 0.00000, 2317.67, -124.032, 0, 0, 5.69841, -124.032, 5.69841, 55.9676
66, 0.00000, 2311.69, -124.156, 0, 0, 7.99516, -124.157, 7.99516, 55.843
67, 0.00000, 2308.15, -124.231, 0, 0, 9.23976, -124.231, 9.23976, 55.7694
68, 0.00000, 2309.58, -124.201, 0, 0, 9.019, -124.201, 9.019, 55.7986
69, 0.00000, 2315.47, -124.083, 0, 0, 8.90473, -124.083, 8.90473, 55.917
70, 0.00000, 2319.45, -124.004, 0, 0, 7.75602, -124.004, 7.75602, 55.9964
71, 0.00000, 2327.75, -123.84, 0, 0, 6.38873, -123.84, 6.38873, 56.1603
72, 0.00000, 2330.88, -123.782, 0, 0, 5.27972, -123.782, 5.27972, 56.2177
73, 0.00000, 2336.93, -123.659, 0, 0, 4.25395, -123.659, 4.25395, 56.341
74, 0.00000, 2337.27, -123.652, 0, 0, 3.89012, -123.652, 3.89012, 56.3483
75, 0.00000, 2336.38, -123.671, 0, 0, 3.81424, -123.67, 3.81424, 56.3295
76, 0.00000, 2336.19, -123.675, 0, 0, 3.78765, -123.675, 3.78765, 56.3252
77, 0.00000, 2330.23, -123.796, 0, 0, 4.26129, -123.795, 4.26129, 56.2054
78, 0.00000, 2327.71, -123.846, 0, 0, 5.25363, -123.845, 5.25363, 56.1547
79, 0.00000, 2310.63, -124.185, 0, 0, 6.43996, -124.185, 6.43996, 55.8148
80, 0.00000, 2320.73, -123.97, 0, 0, 5.83036, -123.97, 5.83036, 56.0305
81, 0.00000, 2314.34, -124.091, 0, 0, 5.17303, -124.091, 5.17303, 55.909
82, 0.00000, 2317.35, -124.033, 0, 0, 4.57193, -124.033, 4.57193, 55.967
83, 0.00000, 2318.45, -124.016, 0, 0, 3.91835, -124.016, 3.91835, 55.9836
84, 0.00000, 2317.98, -124.027, 0, 0, 3.94044, -124.027, 3.94044, 55.9729
85, 0.00000, 2318.81, -124.011, 0, 0, 3.90664, -124.011, 3.90664, 55.989
86, 0.00000, 2320.31, -123.981, 0, 0, 3.80733, -123.981, 3.80733, 56.0191
87, 0.00000, 2320.06, -123.986, 0, 0, 3.77449, -123.986, 3.77449, 56.014
88, 0.00000, 2319.08, -124.005, 0, 0, 4.06918, -124.006, 4.06918, 55.9944
89, 0.00000, 2317.67, -124.032, 0, 0, 5.69841, -124.032, 5.69841, 55.9676
90, 0.00000, 2311.69, -124.156, 0, 0, 7.99516, -124.157, 7.99516, 55.843
91, 0.00000, 2308.15, -124.231, 0, 0, 9.23976, -124.231, 9.23976, 55.7694
92, 0.00000, 2309.58, -124.201, 0, 0, 9.019, -124.201, 9.019, 55.7986
93, 0.00000, 2315.47, -124.083, 0, 0, 8.90473, -124.083, 8.90473, 55.917
94, 0.00000, 2319.45, -124.004, 0, 0, 7.75602, -124.004, 7.75602, 55.9964
95, 0.00000, 2327.75, -123.84, 0, 0, 6.38873, -123.84, 6.38873, 56.1603
96, 0.00000, 2330.88, -123.782, 0, 0, 5.27972, -123.782, 5.27972, 56.2177
97, 0.00000, 2336.93, -123.659, 0, 0, 4.25395, -123.659, 4.25395, 56.341
98, 0.00000, 2337.27, -123.652, 0, 0, 3.89012, -123.652, 3.89012, 56.3483
99, 0.00000, 2336.38, -123.671, 0, 0, 3.81424, -123.67, 3.81424, 56.3295
100, 0.00000, 2336.19, -123.675, 0, 0, 3.78765, -123.675, 3.78765, 56.3252
101, 0.00000, 2330.23, -123.796, 0, 0, 4.26129, -123.795, 4.26129, 56.2054
102, 0.00000, 2327.71, -123.846, 0, 0, 5.25363, -123.845, 5.25363, 56.1547
103, 0.00000, 2310.63, -124.185, 0, 0, 6.43996, -124.185, 6.43996, 55.8148
104, 0.00000, 2320.73, -123.97, 0, 0, 5.83036, -123.97, 5.83036, 56.0305
105, 0.00000, 2314.34, -124.091, 0, 0, 5.17303, -124.091, 5.17303, 55.909
106, 0.00000, 2317.35, -124.033, 0, 0, 4.57193, -124.033, 4.57193, 55.967
107, 0.00000, 2318.45, -124.016, 0, 0, 3.91835, -124.016, 3.91835, 55.9836
108, 0.00000, 2317.98, -124.027, 0, 0, 3.94044, -124.027, 3.94044, 55.9729
109, 0.00000, 2318.81, -124.011, 0, 0, 3.90664, -124.011, 3.90664, 55.989
110, 0.00000, 2320.31, -123.981, 0, 0, 3.80733, -123.981, 3.80733, 56.0191
111, 0.00000, 2320.06, -123.986, 0, 0, 3.77449, -123.986, 3.77449, 56.014
112, 0.00000, 2319.08, -124.005, 0, 0, 4.06918, -124.006, 4.06918, 55.9944
113, 0.00000, 2317.67, -124.032, 0, 0, 5.69841, -124.032, 5.69841, 55.9676
114, 0.00000, 2311.69, -124.156, 0, 0, 7.99516, -124.157, 7.99516, 55.843
115, 0.00000, 2308.15, -124.231, 0, 0, 9.23976, -124.231, 9.23976, 55.7694
116, 0.00000, 2309.58, -124.201, 0, 0, 9.019, -124.201, 9.019, 55.7986
117, 0.00000, 2315.47, -124.083, 0, 0, 8.90473, -124.083, 8.90473, 55.917
118, 0.00000, 2319.45, -124.004, 0, 0, 7.75602, -124.004, 7.75602, 55.9964
119, 0.00000, 2327.75, -123.84, 0, 0, 6.38873, -123.84, 6.38873, 56.1603
120, 0.00000, 2330.88, -123.782, 0, 0, 5.27972, -123.782, 5.27972, 56.2177
121, 0.00000, 2336.93, -123.659, 0, 0, 4.25395, -123.659, 4.25395, 56.341
122, 0.00000, 2337.27, -123.652, 0, 0, 3.89012, -123.652, 3.89012, 56.3483
123, 0.00000, 2336.38, -123.671, 0, 0, 3.81424, -123.67, 3.81424, 56.3295
124, 0.00000, 2336.19, -123.675, 0, 0, 3.78765, -123.675, 3.78765, 56.3252
125, 0.00000, 2330.23, -123.796, 0, 0, 4.26129, -123.795, 4.26129, 56.2054
126, 0.00000, 2327.71, -123.846, 0, 0, 5.25363, -123.845, 5.25363, 56.1547
127, 0.00000, 2310.63, -124.185, 0, 0, 6.43996, -124.185, 6.43996, 55.8148
128, 0.00000, 2320.73, -123.97, 0, 0, 5.83036, -123.97, 5.83036, 56.0305
129, 0.00000, 2314.34, -124.091, 0, 0, 5.17303, -124.091, 5.17303, 55.909
130, 0.00000, 2317.35, -124.033, 0, 0, 4.57193, -124.033, 4.57193, 55.967
131, 0.00000, 2318.45, -124.016, 0, 0, 3.91835, -124.016, 3.91835, 55.9836
132, 0.00000, 2317.98, -124.027, 0, 0, 3.94044, -124.027, 3.94044, 55.9729
133, 0.00000, 2318.81, -124.011, 0, 0, 3.90664, -124.011, 3.90664, 55.989
134, 0.00000, 2320.31, -123.981, 0, 0, 3.80733, -123.981, 3.80733, 56.0191
135, 0.00000, 2320.06, -123.986, 0, 0, 3.77449, -123.986, 3.77449, 56.014
136, 0.00000, 2319.08, -124.005, 0, 0, 4.06918, -124.006, 4.06918, 55.9944
137, 0.00000, 2317.67, -124.032, 0, 0, 5.69841, -124.032, 5.69841, 55.9676
138, 0.00000, 2311.69, -124.156, 0, 0, 7.99516, -124.157, 7.99516, 55.843
139, 0.00000, 2308.15, -124.231, 0, 0, 9.23976, -124.231, 9.23976, 55.7694
140, 0.00000, 2309.58, -124.201, 0, 0, 9.019, -124.201, 9.019, 55.7986
141, 0.00000, 2315.47, -124.083, 0, 0, 8.90473, -124.083, 8.90473, 55.917
142, 0.00000, 2319.45, -124.004, 0, 0, 7.75602, -124.004, 7.75602, 55.9964
143, 0.00000, 2327.75, -123.84, 0, 0, 6.38873, -123.84, 6.38873, 56.1603
144, 0.00000, 2330.88, -123.782, 0, 0, 5.27972, -123.782, 5.27972, 56.2177
145, 0.00000, 2336.93, -123.659, 0, 0, 4.25395, -123.659, 4.25395, 56.341
146, 0.00000, 2337.27, -123.652, 0, 0, 3.89012, -123.652, 3.89012, 56.3483
147, 0.00000, 2336.38, -123.671, 0, 0, 3.81424, -123.67, 3.81424, 56.3295
148, 0.00000, 2336.19, -123.675, 0, 0, 3.78765, -123.675, 3.78765, 56.3252
149, 0.00000, 2330.23, -123.796, 0, 0, 4.26129, -123.795, 4.26129, 56.2054
150, 0.00000, 2327.71, -123.846, 0, 0, 5.25363, -123.845, 5.25363, 56.1547
151, 0.00000, 2310.63, -124.185, 0, 0, 6.43996, -124.185, 6.43996, 55.8148
152, 0.00000, 2320.73, -123.97, 0, 0, 5.83036, -123.97, 5.83036, 56.0305
153, 0.00000, 2314.34, -124.091, 0, 0, 5.17303, -124.091, 5.17303, 55.909
154, 0.00000, 2317.35, -124.033, 0, 0, 4.57193, -124.033, 4.57193, 55.967
155, 0.00000, 2318.45, -124.016, 0, 0, 3.91835, -124.016, 3.91835, 55.9836
156, 0.00000, 2317.98, -124.027, 0, 0, 3.94044, -124.027, 3.94044, 55.9729
157, 0.00000, 2318.81, -124.011, 0, 0, 3.90664, -124.011, 3.90664, 55.989
158, 0.00000, 2320.31, -123.981, 0, 0, 3.80733, -123.981, 3.80733, 56.0191
159, 0.00000, 2320.06, -123.986, 0, 0, 3.77449, -123.986, 3.77449, 56.014
160, 0.00000, 2319.08, -124.005, 0, 0, 4.06918, -124.006, 4.06918, 55.9944
161, 0.00000, 2317.67, -124.032, 0, 0, 5.69841, -124.032, 5.69841, 55.9676
162, 0.00000, 2311.69, -124.156, 0, 0, 7.99516, -124.157, 7.99516, 55.843
163, 0.00000, 2308.15, -124.231, 0, 0, 9.23976, -124.231, 9.23976, 55.7694
164, 0.00000, 2309.58, -124.201, 0, 0, 9.019, -124.201, 9.019, 55.7986
165, 0.00000, 2315.47, -124.083, 0, 0, 8.90473, -124.083, 8.90473, 55.917
166, 0.00000, 2319.45, -124.004, 0, 0, 7.75602, -124.004, 7.75602, 55.9964
167, 0.00000, 2327.75, -123.84, 0, 0, 6.38873, -123.84, 6.38873, 56.1603
168, 0.00000, 2330.88, -123.782, 0, 0, 5.27972, -123.782, 5.27972, 56.2177
169, 0.00000, 2336.93, -123.659, 0, 0, 4.25395, -123.659, 4.25395, 56.341
170, 0.00000, 2337.27, -123.652, 0, 0, 3.89012, -123.652, 3.89012, 56.3483
171, 0.00000, 2336.38, -123.671, 0, 0, 3.81424, -123.67, 3.81424, 56.3295
172, 0.00000, 2336.19, -123.675, 0, 0, 3.78765, -123.675, 3.78765, 56.3252
173, 0.00000, 2330.23, -123.796, 0, 0, 4.26129, -123.795, 4.26129, 56.2054
174, 0.00000, 2327.71, -123.846, 0, 0, 5.25363, -123.845, 5.25363, 56.1547
175, 0.00000, 2310.63, -124.185, 0, 0, 6.43996, -124.185, 6.43996, 55.8148
176, 0.00000, 2320.73, -123.97, 0, 0, 5.83036, -123.97, 5.83036, 56.0305
177, 0.00000, 2314.34, -124.091, 0, 0, 5.17303, -124.091, 5.17303, 55.909
178, 0.00000, 2317.35, -124.033, 0, 0, 4.57193, -124.033, 4.57193, 55.967
179, 0.00000, 2318.45, -124.016, 0, 0, 3.91835, -124.016, 3.91835, 55.9836
180, 0.00000, 2317.98, -124.027, 0, 0, 3.94044, -124.027, 3.94044, 55.9729
181, 0.00000, 2318.81, -124.011, 0, 0, 3.90664, -124.011, 3.90664, 55.989
182, 0.00000, 2320.31, -123.981, 0, 0, 3.80733, -123.981, 3.80733, 56.0191
183, 0.00000, 2320.06, -123.986, 0, 0, 3.77449, -123.986, 3.77449, 56.014
184, 0.00000, 2319.08, -124.005, 0, 0, 4.06918, -124.006, 4.06918, 55.9944
185, 0.00000, 2317.67, -124.032, 0, 0, 5.69841, -124.032, 5.69841, 55.9676
186, 0.00000, 2311.69, -124.156, 0, 0, 7.99516, -124.157, 7.99516, 55.843
187, 0.00000, 2308.15, -124.231, 0, 0, 9.23976, -124.231, 9.23976, 55.7694
188, 0.00000, 2309.58, -124.201, 0, 0, 9.019, -124.201, 9.019, 55.7986
189, 0.00000, 2315.47, -124.083, 0, 0, 8.90473, -124.083, 8.90473, 55.917
190, 0.00000, 2319.45, -124.004, 0, 0, 7.75602, -124.004, 7.75602, 55.9964
191, 0.00000, 2327.75, -123.84, 0, 0, 6.38873, -123.84, 6.38873, 56.1603
192, 0.00000, 2330.88, -123.782, 0, 0, 5.27972, -123.782, 5.27972, 56.2177
193, 0.00000, 2336.93, -123.659, 0, 0, 4.25395, -123.659, 4.25395, 56.341
194, 0.00000, 2337.27, -123.652, 0, 0, 3.89012, -123.652, 3.89012, 56.3483
195, 0.00000, 2336.38, -123.671, 0, 0, 3.81424, -123.67, 3.81424, 56.3295
196, 0.00000, 2336.19, -123.675, 0, 0, 3.78765, -123.675, 3.78765, 56.3252
197, 0.00000, 2330.23, -123.796, 0, 0, 4.26129, -123.795, 4.26129, 56.2054
198, 0.00000, 2327.71, -123.846, 0, 0, 5.25363, -123.845, 5.25363, 56.1547
199, 0.00000, 2310.63, -124.185, 0, 0, 6.43996, -124.185, 6.43996, 55.8148
200, 0.00000, 2320.73, -123.97, 0, 0, 5.83036, -123.97, 5.83036, 56.0305
201, 0.00000, 2314.34, -124.091, 0, 0, 5.17303, -124.091, 5.17303, 55.909
202, 0.00000, 2317.35, -124.033, 0, 0, 4.57193, -124.033, 4.57193, 55.967
203, 0.00000, 2318.45, -124.016, 0, 0, 3.91835, -124.016, 3.91835, 55.9836
204, 0.00000, 2317.98, -124.027, 0, 0, 3.94044, -124.027, 3.94044, 55.9729
205, 0.00000, 2318.81, -124.011, 0, 0, 3.90664, -124.011, 3.90664, 55.989
206, 0.00000, 2320.31, -123.981, 0, 0, 3.80733, -123.981, 3.80733, 56.0191
207, 0.00000, 2320.06, -123.986, 0, 0, 3.77449, -123.986, 3.77449, 56.014
208, 0.00000, 2319.08, -124.005, 0, 0, 4.06918, -124.006, 4.06918, 55.9944
209, 0.00000, 2317.67, -124.032, 0, 0, 5.69841, -124.032, 5.69841, 55.9676
210, 0.00000, 2311.69, -124.156, 0, 0, 7.99516, -124.157, 7.99516, 55.843
211, 0.00000, 2308.15, -124.231, 0, 0, 9.23976, -124.231, 9.23976, 55.7694
212, 0.00000, 2309.58, -124.201, 0, 0, 9.019, -124.201, 9.019, 55.7986
213, 0.00000, 2315.47, -124.083, 0, 0, 8.90473, -124.083, 8.90473, 55.917
214, 0.00000, 2319.45, -124.004, 0, 0, 7.75602, -124.004, 7.75602, 55.9964
215, 0.00000, 2327.75, -123.84, 0, 0, 6.38873, -123.84, 6.38873, 56.1603
216, 0.00000, 2330.88, -123.782, 0, 0, 5.27972, -123.782, 5.27972, 56.2177
217, 0.00000, 2336.93, -123.659, 0, 0, 4.25395, -123.659, 4.25395, 56.341
218, 0.00000, 2337.27, -123.652, 0, 0, 3.89012, -123.652, 3.89012, 56.3483
219, 0.00000, 2336.38, -123.671, 0, 0, 3.81424, -123.67, 3.81424, 56.3295
220, 0.00000, 2336.19, -123.675, 0, 0, 3.78765, -123.675, 3.78765, 56.3252
221, 0.00000, 2330.23, -123.796, 0, 0, 4.26129, -123.795, 4.26129, 56.2054
222, 0.00000, 2327.71, -123.846, 0, 0, 5.25363, -123.845, 5.25363, 56.1547
223, 0.00000, 2310.63, -124.185, 0, 0, 6.43996, -124.185, 6.43996, 55.8148
224, 0.00000, 2320.73, -123.97, 0, 0, 5.83036, -123.97, 5.83036, 56.0305
225, 0.00000, 2314.34, -124.091, 0, 0, 5.17303, -124.091, 5.17303, 55.909
226, 0.00000, 2317.35, -124.033, 0, 0, 4.57193, -124.033, 4.57193, 55.967
227, 0.00000, 2318.45, -124.016, 0, 0, 3.91835, -124.016, 3.91835, 55.9836
228, 0.00000, 2317.98, -124.027, 0, 0, 3.94044, -124.027, 3.94044, 55.9729
229, 0.00000, 2318.81, -124.011, 0, 0, 3.90664, -124.011, 3.90664, 55.989
230, 0.00000, 2320.31, -123.981, 0, 0, 3.80733, -123.981, 3.80733, 56.0191
231, 0.00000, 2320.06, -123.986, 0, 0, 3.77449, -123.986, 3.77449, 56.014
232, 0.00000, 2319.08, -124.005, 0, 0, 4.06918, -124.006, 4.06918, 55.9944
233, 0.00000, 2317.67, -124.032, 0, 0, 5.69841, -124.032, 5.69841, 55.9676
234, 0.00000, 2311.69, -124.156, 0, 0, 7.99516, -124.157, 7.99516, 55.843
235, 0.00000, 2308.15, -124.231, 0, 0, 9.23976, -124.231, 9.23976, 55.7694
236, 0.00000, 2309.58, -124.201, 0, 0, 9.019, -124.201, 9.019, 55.7986
237, 0.00000, 2315.47, -124.083, 0, 0, 8.90473, -124.083, 8.90473, 55.917
238, 0.00000, 2319.45, -124.004, 0, 0, 7.75602, -124.004, 7.75602, 55.9964
239, 0.00000, 2327.75, -123.84, 0, 0, 6.38873, -123.84, 6.38873, 56.1603
240, 0.00000, 2330.88, -123.782, 0, 0, 5.27972, -123.782, 5.27972, 56.2177
241, 0.00000, 2336.93, -123.659, 0, 0, 4.25395, -123.659, 4.25395, 56.341
242, 0.00000, 2337.27, -123.652, 0, 0, 3.89012, -123.652, 3.89012, 56.3483
243, 0.00000, 2336.38, -123.671, 0, 0, 3.81424, -123.67, 3.81424, 56.3295
244, 0.00000, 2336.19, -123.675, 0, 0, 3.78765, -123.675, 3.78765, 56.3252
245, 0.00000, 2330.23, -123.796, 0, 0, 4.26129, -123.795, 4.26129, 56.2054
246, 0.00000, 2327.71, -123.846, 0, 0, 5.25363, -123.845, 5.25363, 56.1547
247, 0.00000, 2310.63, -124.185, 0, 0, 6.43996, -124.185, 6.43996, 55.8148
248, 0.00000, 2320.73, -123.97, 0, 0, 5.83036, -123.97, 5.83036, 56.0305
249, 0.00000, 2314.34, -124.091, 0, 0, 5.17303, -124.091, 5.17303, 55.909
250, 0.00000, 2317.35, -124.033, 0, 0, 4.57193, -124.033, 4.57193, 55.967
251, 0.00000, 2318.45, -124.016, 0, 0, 3.91835, -124.016, 3.91835, 55.9836
252, 0.00000, 2317.98, -124.027, 0, 0, 3.94044, -124.027, 3.94044, 55.9729
253, 0.00000, 2318.81, -124.011, 0, 0, 3.90664, -124.011, 3.90664, 55.989
254, 0.00000, 2320.31, -123.981, 0, 0, 3.80733, -123.981, 3.80733, 56.0191
255, 0.00000, 2320.06, -123.986, 0, 0, 3.77449, -123.986, 3.77449, 56.014
256, 0.00000, 2319.08, -124.005, 0, 0, 4.06918, -124.006, 4.06918, 55.9944
257, 0.00000, 2317.67, -124.032, 0, 0, 5.69841, -124.032, 5.69841, 55.9676
258, 0.00000, 2311.69, -124.156, 0, 0, 7.99516, -124.157, 7.99516, 55.843
259, 0.00000, 2308.15, -124.231, 0, 0, 9.23976, -124.231, 9.23976, 55.7694
260, 0.00000, 2309.58, -124.201, 0, 0, 9.019, -124.201, 9.019, 55.7986
261, 0.00000, 2315.47, -124.083, 0, 0, 8.90473, -124.083, 8.90473, 55.917
262, 0.00000, 2319.45, -124.004, 0, 0, 7.75602, -124.004, 7.75602, 55.9964
263, 0.00000, 2327.75, -123.84, 0, 0, 6.38873, -123.84, 6.38873, 56.1603
264, 0.00000, 2330.88, -123.782, 0, 0, 5.27972, -123.782, 5.27972, 56.2177
265, 0.00000, 2336.93, -123.659, 0, 0, 4.25395, -123.659, 4.25395, 56.341
266, 0.00000, 2337.27, -123.652, 0, 0, 3.89012, -123.652, 3.89012, 56.3483
267, 0.00000, 2336.38, -123.671, 0, 0, 3.81424, -123.67, 3.81424, 56.3295
268, 0.00000, 2336.19, -123.675, 0, 0, 3.78765, -123.675, 3.78765, 56.3252
269, 0.00000, 2330.23, -123.796, 0, 0, 4.26129, -123.795, 4.26129, 56.2054
