hour, t(sec), V1, VAngle1, V2, VAngle2, I1, IAngle1, I2, IAngle2
1, 0.00000, 2356.16, 114.403, 0, 0, 8.50228, 114.398, 8.50228, -65.6023
2, 0.00000, 2356.32, 114.403, 0, 0, 7.77712, 114.403, 7.77712, -65.5968
3, 0.00000, 2357.43, 114.433, 0, 0, 7.6261, 114.433, 7.6261, -65.567
4, 0.00000, 2357.67, 114.44, 0, 0, 7.57312, 114.44, 7.57312, -65.5602
5, 0.00000, 2349.67, 114.253, 0, 0, 8.46989, 114.255, 8.46989, -65.7446
6, 0.00000, 2343.49, 114.11, 0, 0, 10.4034, 114.112, 10.4034, -65.8885
7, 0.00000, 2314.22, 113.415, 0, 0, 12.5006, 113.415, 12.5006, -66.5846
8, 0.00000, 2319.68, 113.54, 0, 0, 11.3931, 113.541, 11.3931, -66.459
9, 0.00000, 2303.87, 113.151, 0, 0, 10.0125, 113.151, 10.0125, -66.8488
10, 0.00000, 2313.18, 113.373, 0, 0, 8.8964, 113.373, 8.8964, -66.6273
11, 0.00000, 2323.64, 113.635, 0, 0, 7.66273, 113.635, 7.66273, -66.3648
12, 0.00000, 2324.16, 113.652, 0, 0, 7.70605, 113.652, 7.70605, -66.3479
13, 0.00000, 2325.14, 113.677, 0, 0, 7.64589, 113.677, 7.64589, -66.3227
14, 0.00000, 2327.05, 113.721, 0, 0, 7.46243, 113.721, 7.46243, -66.2785
15, 0.00000, 2326.9, 113.717, 0, 0, 7.39691, 113.717, 7.39691, -66.2826
16, 0.00000, 2325.25, 113.68, 0, 0, 7.96543, 113.68, 7.96543, -66.32
17, 0.00000, 2319.2, 113.545, 0, 0, 11.1191, 113.544, 11.1191, -66.4561
18, 0.00000, 2307.06, 113.262, 0, 0, 15.4799, 113.257, 15.4799, -66.7426
19, 0.00000, 2295.38, 112.977, 0, 0, 17.7702, 112.977, 17.7702, -67.0228
20, 0.00000, 2295.97, 112.986, 0, 0, 17.3608, 112.986, 17.3608, -67.0145
21, 0.00000, 2301.11, 113.101, 0, 0, 17.223, 113.101, 17.223, -66.8995
22, 0.00000, 2309.26, 113.284, 0, 0, 15.0803, 113.284, 15.0803, -66.7157
23, 0.00000, 2329.99, 113.774, 0, 0, 12.5781, 113.774, 12.5781, -66.2264
24, 0.00000, 2345.27, 114.149, 0, 0, 10.4762, 114.145, 10.4762, -65.8551
25, 0.00000, 2356.16, 114.403, 0, 0, 8.50269, 114.403, 8.50269, -65.597
26, 0.00000, 2356.32, 114.403, 0, 0, 7.77712, 114.403, 7.77712, -65.5968
27, 0.00000, 2357.43, 114.433, 0, 0, 7.6261, 114.433, 7.6261, -65.567
28, 0.00000, 2357.67, 114.44, 0, 0, 7.57312, 114.44, 7.57312, -65.5602
29, 0.00000, 2349.67, 114.253, 0, 0, 8.46989, 114.255, 8.46989, -65.7446
30, 0.00000, 2343.49, 114.11, 0, 0, 10.4034, 114.112, 10.4034, -65.8885
31, 0.00000, 2314.22, 113.415, 0, 0, 12.5006, 113.415, 12.5006, -66.5846
32, 0.00000, 2319.68, 113.54, 0, 0, 11.3931, 113.541, 11.3931, -66.459
33, 0.00000, 2303.87, 113.151, 0, 0, 10.0125, 113.151, 10.0125, -66.8488
34, 0.00000, 2313.18, 113.373, 0, 0, 8.8964, 113.373, 8.8964, -66.6273
35, 0.00000, 2323.64, 113.635, 0, 0, 7.66273, 113.635, 7.66273, -66.3648
36, 0.00000, 2324.16, 113.652, 0, 0, 7.70605, 113.652, 7.70605, -66.3479
37, 0.00000, 2325.14, 113.677, 0, 0, 7.64589, 113.677, 7.64589, -66.3227
38, 0.00000, 2327.05, 113.721, 0, 0, 7.46243, 113.721, 7.46243, -66.2785
39, 0.00000, 2326.9, 113.717, 0, 0, 7.39691, 113.717, 7.39691, -66.2826
40, 0.00000, 2325.25, 113.68, 0, 0, 7.96543, 113.68, 7.96543, -66.32
41, 0.00000, 2319.2, 113.545, 0, 0, 11.1191, 113.544, 11.1191, -66.4561
42, 0.00000, 2307.06, 113.262, 0, 0, 15.4799, 113.257, 15.4799, -66.7426
43, 0.00000, 2295.38, 112.977, 0, 0, 17.7702, 112.977, 17.7702, -67.0228
44, 0.00000, 2295.97, 112.986, 0, 0, 17.3608, 112.986, 17.3608, -67.0145
45, 0.00000, 2301.11, 113.101, 0, 0, 17.223, 113.101, 17.223, -66.8995
46, 0.00000, 2309.26, 113.284, 0, 0, 15.0803, 113.284, 15.0803, -66.7157
47, 0.00000, 2329.99, 113.774, 0, 0, 12.5781, 113.774, 12.5781, -66.2264
48, 0.00000, 2345.27, 114.149, 0, 0, 10.4762, 114.145, 10.4762, -65.8551
49, 0.00000, 2356.16, 114.403, 0, 0, 8.50269, 114.403, 8.50269, -65.597
50, 0.00000, 2356.32, 114.403, 0, 0, 7.77712, 114.403, 7.77712, -65.5968
51, 0.00000, 2357.43, 114.433, 0, 0, 7.6261, 114.433, 7.6261, -65.567
52, 0.00000, 2357.67, 114.44, 0, 0, 7.57312, 114.44, 7.57312, -65.5602
53, 0.00000, 2349.67, 114.253, 0, 0, 8.46989, 114.255, 8.46989, -65.7446
54, 0.00000, 2343.49, 114.11, 0, 0, 10.4034, 114.112, 10.4034, -65.8885
55, 0.00000, 2314.22, 113.415, 0, 0, 12.5006, 113.415, 12.5006, -66.5846
56, 0.00000, 2319.68, 113.54, 0, 0, 11.3931, 113.541, 11.3931, -66.459
57, 0.00000, 2303.87, 113.151, 0, 0, 10.0125, 113.151, 10.0125, -66.8488
58, 0.00000, 2313.18, 113.373, 0, 0, 8.8964, 113.373, 8.8964, -66.6273
59, 0.00000, 2323.64, 113.635, 0, 0, 7.66273, 113.635, 7.66273, -66.3648
60, 0.00000, 2324.16, 113.652, 0, 0, 7.70605, 113.652, 7.70605, -66.3479
61, 0.00000, 2325.14, 113.677, 0, 0, 7.64589, 113.677, 7.64589, -66.3227
62, 0.00000, 2327.05, 113.721, 0, 0, 7.46243, 113.721, 7.46243, -66.2785
63, 0.00000, 2326.9, 113.717, 0, 0, 7.39691, 113.717, 7.39691, -66.2826
64, 0.00000, 2325.25, 113.68, 0, 0, 7.96543, 113.68, 7.96543, -66.32
65, 0.00000, 2319.2, 113.545, 0, 0, 11.1191, 113.544, 11.1191, -66.4561
66, 0.00000, 2307.06, 113.262, 0, 0, 15.4799, 113.257, 15.4799, -66.7426
67, 0.00000, 2295.38, 112.977, 0, 0, 17.7702, 112.977, 17.7702, -67.0228
68, 0.00000, 2295.97, 112.986, 0, 0, 17.3608, 112.986, 17.3608, -67.0145
69, 0.00000, 2301.11, 113.101, 0, 0, 17.223, 113.101, 17.223, -66.8995
70, 0.00000, 2309.26, 113.284, 0, 0, 15.0803, 113.284, 15.0803, -66.7157
71, 0.00000, 2329.99, 113.774, 0, 0, 12.5781, 113.774, 12.5781, -66.2264
72, 0.00000, 2345.27, 114.149, 0, 0, 10.4762, 114.145, 10.4762, -65.8551
73, 0.00000, 2356.16, 114.403, 0, 0, 8.50269, 114.403, 8.50269, -65.597
74, 0.00000, 2356.32, 114.403, 0, 0, 7.77712, 114.403, 7.77712, -65.5968
75, 0.00000, 2357.43, 114.433, 0, 0, 7.6261, 114.433, 7.6261, -65.567
76, 0.00000, 2357.67, 114.44, 0, 0, 7.57312, 114.44, 7.57312, -65.5602
77, 0.00000, 2349.67, 114.253, 0, 0, 8.46989, 114.255, 8.46989, -65.7446
78, 0.00000, 2343.49, 114.11, 0, 0, 10.4034, 114.112, 10.4034, -65.8885
79, 0.00000, 2314.22, 113.415, 0, 0, 12.5006, 113.415, 12.5006, -66.5846
80, 0.00000, 2319.68, 113.54, 0, 0, 11.3931, 113.541, 11.3931, -66.459
81, 0.00000, 2303.87, 113.151, 0, 0, 10.0125, 113.151, 10.0125, -66.8488
82, 0.00000, 2313.18, 113.373, 0, 0, 8.8964, 113.373, 8.8964, -66.6273
83, 0.00000, 2323.64, 113.635, 0, 0, 7.66273, 113.635, 7.66273, -66.3648
84, 0.00000, 2324.16, 113.652, 0, 0, 7.70605, 113.652, 7.70605, -66.3479
85, 0.00000, 2325.14, 113.677, 0, 0, 7.64589, 113.677, 7.64589, -66.3227
86, 0.00000, 2327.05, 113.721, 0, 0, 7.46243, 113.721, 7.46243, -66.2785
87, 0.00000, 2326.9, 113.717, 0, 0, 7.39691, 113.717, 7.39691, -66.2826
88, 0.00000, 2325.25, 113.68, 0, 0, 7.96543, 113.68, 7.96543, -66.32
89, 0.00000, 2319.2, 113.545, 0, 0, 11.1191, 113.544, 11.1191, -66.4561
90, 0.00000, 2307.06, 113.262, 0, 0, 15.4799, 113.257, 15.4799, -66.7426
91, 0.00000, 2295.38, 112.977, 0, 0, 17.7702, 112.977, 17.7702, -67.0228
92, 0.00000, 2295.97, 112.986, 0, 0, 17.3608, 112.986, 17.3608, -67.0145
93, 0.00000, 2301.11, 113.101, 0, 0, 17.223, 113.101, 17.223, -66.8995
94, 0.00000, 2309.26, 113.284, 0, 0, 15.0803, 113.284, 15.0803, -66.7157
95, 0.00000, 2329.99, 113.774, 0, 0, 12.5781, 113.774, 12.5781, -66.2264
96, 0.00000, 2345.27, 114.149, 0, 0, 10.4762, 114.145, 10.4762, -65.8551
97, 0.00000, 2356.16, 114.403, 0, 0, 8.50269, 114.403, 8.50269, -65.597
98, 0.00000, 2356.32, 114.403, 0, 0, 7.77712, 114.403, 7.77712, -65.5968
99, 0.00000, 2357.43, 114.433, 0, 0, 7.6261, 114.433, 7.6261, -65.567
100, 0.00000, 2357.67, 114.44, 0, 0, 7.57312, 114.44, 7.57312, -65.5602
101, 0.00000, 2349.67, 114.253, 0, 0, 8.46989, 114.255, 8.46989, -65.7446
102, 0.00000, 2343.49, 114.11, 0, 0, 10.4034, 114.112, 10.4034, -65.8885
103, 0.00000, 2314.22, 113.415, 0, 0, 12.5006, 113.415, 12.5006, -66.5846
104, 0.00000, 2319.68, 113.54, 0, 0, 11.3931, 113.541, 11.3931, -66.459
105, 0.00000, 2303.87, 113.151, 0, 0, 10.0125, 113.151, 10.0125, -66.8488
106, 0.00000, 2313.18, 113.373, 0, 0, 8.8964, 113.373, 8.8964, -66.6273
107, 0.00000, 2323.64, 113.635, 0, 0, 7.66273, 113.635, 7.66273, -66.3648
108, 0.00000, 2324.16, 113.652, 0, 0, 7.70605, 113.652, 7.70605, -66.3479
109, 0.00000, 2325.14, 113.677, 0, 0, 7.64589, 113.677, 7.64589, -66.3227
110, 0.00000, 2327.05, 113.721, 0, 0, 7.46243, 113.721, 7.46243, -66.2785
111, 0.00000, 2326.9, 113.717, 0, 0, 7.39691, 113.717, 7.39691, -66.2826
112, 0.00000, 2325.25, 113.68, 0, 0, 7.96543, 113.68, 7.96543, -66.32
113, 0.00000, 2319.2, 113.545, 0, 0, 11.1191, 113.544, 11.1191, -66.4561
114, 0.00000, 2307.06, 113.262, 0, 0, 15.4799, 113.257, 15.4799, -66.7426
115, 0.00000, 2295.38, 112.977, 0, 0, 17.7702, 112.977, 17.7702, -67.0228
116, 0.00000, 2295.97, 112.986, 0, 0, 17.3608, 112.986, 17.3608, -67.0145
117, 0.00000, 2301.11, 113.101, 0, 0, 17.223, 113.101, 17.223, -66.8995
118, 0.00000, 2309.26, 113.284, 0, 0, 15.0803, 113.284, 15.0803, -66.7157
119, 0.00000, 2329.99, 113.774, 0, 0, 12.5781, 113.774, 12.5781, -66.2264
120, 0.00000, 2345.27, 114.149, 0, 0, 10.4762, 114.145, 10.4762, -65.8551
121, 0.00000, 2356.16, 114.403, 0, 0, 8.50269, 114.403, 8.50269, -65.597
122, 0.00000, 2356.32, 114.403, 0, 0, 7.77712, 114.403, 7.77712, -65.5968
123, 0.00000, 2357.43, 114.433, 0, 0, 7.6261, 114.433, 7.6261, -65.567
124, 0.00000, 2357.67, 114.44, 0, 0, 7.57312, 114.44, 7.57312, -65.5602
125, 0.00000, 2349.67, 114.253, 0, 0, 8.46989, 114.255, 8.46989, -65.7446
126, 0.00000, 2343.49, 114.11, 0, 0, 10.4034, 114.112, 10.4034, -65.8885
127, 0.00000, 2314.22, 113.415, 0, 0, 12.5006, 113.415, 12.5006, -66.5846
128, 0.00000, 2319.68, 113.54, 0, 0, 11.3931, 113.541, 11.3931, -66.459
129, 0.00000, 2303.87, 113.151, 0, 0, 10.0125, 113.151, 10.0125, -66.8488
130, 0.00000, 2313.18, 113.373, 0, 0, 8.8964, 113.373, 8.8964, -66.6273
131, 0.00000, 2323.64, 113.635, 0, 0, 7.66273, 113.635, 7.66273, -66.3648
132, 0.00000, 2324.16, 113.652, 0, 0, 7.70605, 113.652, 7.70605, -66.3479
133, 0.00000, 2325.14, 113.677, 0, 0, 7.64589, 113.677, 7.64589, -66.3227
134, 0.00000, 2327.05, 113.721, 0, 0, 7.46243, 113.721, 7.46243, -66.2785
135, 0.00000, 2326.9, 113.717, 0, 0, 7.39691, 113.717, 7.39691, -66.2826
136, 0.00000, 2325.25, 113.68, 0, 0, 7.96543, 113.68, 7.96543, -66.32
137, 0.00000, 2319.2, 113.545, 0, 0, 11.1191, 113.544, 11.1191, -66.4561
138, 0.00000, 2307.06, 113.262, 0, 0, 15.4799, 113.257, 15.4799, -66.7426
139, 0.00000, 2295.38, 112.977, 0, 0, 17.7702, 112.977, 17.7702, -67.0228
140, 0.00000, 2295.97, 112.986, 0, 0, 17.3608, 112.986, 17.3608, -67.0145
141, 0.00000, 2301.11, 113.101, 0, 0, 17.223, 113.101, 17.223, -66.8995
142, 0.00000, 2309.26, 113.284, 0, 0, 15.0803, 113.284, 15.0803, -66.7157
143, 0.00000, 2329.99, 113.774, 0, 0, 12.5781, 113.774, 12.5781, -66.2264
144, 0.00000, 2345.27, 114.149, 0, 0, 10.4762, 114.145, 10.4762, -65.8551
145, 0.00000, 2356.16, 114.403, 0, 0, 8.50269, 114.403, 8.50269, -65.597
146, 0.00000, 2356.32, 114.403, 0, 0, 7.77712, 114.403, 7.77712, -65.5968
147, 0.00000, 2357.43, 114.433, 0, 0, 7.6261, 114.433, 7.6261, -65.567
148, 0.00000, 2357.67, 114.44, 0, 0, 7.57312, 114.44, 7.57312, -65.5602
149, 0.00000, 2349.67, 114.253, 0, 0, 8.46989, 114.255, 8.46989, -65.7446
150, 0.00000, 2343.49, 114.11, 0, 0, 10.4034, 114.112, 10.4034, -65.8885
151, 0.00000, 2314.22, 113.415, 0, 0, 12.5006, 113.415, 12.5006, -66.5846
152, 0.00000, 2319.68, 113.54, 0, 0, 11.3931, 113.541, 11.3931, -66.459
153, 0.00000, 2303.87, 113.151, 0, 0, 10.0125, 113.151, 10.0125, -66.8488
154, 0.00000, 2313.18, 113.373, 0, 0, 8.8964, 113.373, 8.8964, -66.6273
155, 0.00000, 2323.64, 113.635, 0, 0, 7.66273, 113.635, 7.66273, -66.3648
156, 0.00000, 2324.16, 113.652, 0, 0, 7.70605, 113.652, 7.70605, -66.3479
157, 0.00000, 2325.14, 113.677, 0, 0, 7.64589, 113.677, 7.64589, -66.3227
158, 0.00000, 2327.05, 113.721, 0, 0, 7.46243, 113.721, 7.46243, -66.2785
159, 0.00000, 2326.9, 113.717, 0, 0, 7.39691, 113.717, 7.39691, -66.2826
160, 0.00000, 2325.25, 113.68, 0, 0, 7.96543, 113.68, 7.96543, -66.32
161, 0.00000, 2319.2, 113.545, 0, 0, 11.1191, 113.544, 11.1191, -66.4561
162, 0.00000, 2307.06, 113.262, 0, 0, 15.4799, 113.257, 15.4799, -66.7426
163, 0.00000, 2295.38, 112.977, 0, 0, 17.7702, 112.977, 17.7702, -67.0228
164, 0.00000, 2295.97, 112.986, 0, 0, 17.3608, 112.986, 17.3608, -67.0145
165, 0.00000, 2301.11, 113.101, 0, 0, 17.223, 113.101, 17.223, -66.8995
166, 0.00000, 2309.26, 113.284, 0, 0, 15.0803, 113.284, 15.0803, -66.7157
167, 0.00000, 2329.99, 113.774, 0, 0, 12.5781, 113.774, 12.5781, -66.2264
168, 0.00000, 2345.27, 114.149, 0, 0, 10.4762, 114.145, 10.4762, -65.8551
169, 0.00000, 2356.16, 114.403, 0, 0, 8.50269, 114.403, 8.50269, -65.597
170, 0.00000, 2356.32, 114.403, 0, 0, 7.77712, 114.403, 7.77712, -65.5968
171, 0.00000, 2357.43, 114.433, 0, 0, 7.6261, 114.433, 7.6261, -65.567
172, 0.00000, 2357.67, 114.44, 0, 0, 7.57312, 114.44, 7.57312, -65.5602
173, 0.00000, 2349.67, 114.253, 0, 0, 8.46989, 114.255, 8.46989, -65.7446
174, 0.00000, 2343.49, 114.11, 0, 0, 10.4034, 114.112, 10.4034, -65.8885
175, 0.00000, 2314.22, 113.415, 0, 0, 12.5006, 113.415, 12.5006, -66.5846
176, 0.00000, 2319.68, 113.54, 0, 0, 11.3931, 113.541, 11.3931, -66.459
177, 0.00000, 2303.87, 113.151, 0, 0, 10.0125, 113.151, 10.0125, -66.8488
178, 0.00000, 2313.18, 113.373, 0, 0, 8.8964, 113.373, 8.8964, -66.6273
179, 0.00000, 2323.64, 113.635, 0, 0, 7.66273, 113.635, 7.66273, -66.3648
180, 0.00000, 2324.16, 113.652, 0, 0, 7.70605, 113.652, 7.70605, -66.3479
181, 0.00000, 2325.14, 113.677, 0, 0, 7.64589, 113.677, 7.64589, -66.3227
182, 0.00000, 2327.05, 113.721, 0, 0, 7.46243, 113.721, 7.46243, -66.2785
183, 0.00000, 2326.9, 113.717, 0, 0, 7.39691, 113.717, 7.39691, -66.2826
184, 0.00000, 2325.25, 113.68, 0, 0, 7.96543, 113.68, 7.96543, -66.32
185, 0.00000, 2319.2, 113.545, 0, 0, 11.1191, 113.544, 11.1191, -66.4561
186, 0.00000, 2307.06, 113.262, 0, 0, 15.4799, 113.257, 15.4799, -66.7426
187, 0.00000, 2295.38, 112.977, 0, 0, 17.7702, 112.977, 17.7702, -67.0228
188, 0.00000, 2295.97, 112.986, 0, 0, 17.3608, 112.986, 17.3608, -67.0145
189, 0.00000, 2301.11, 113.101, 0, 0, 17.223, 113.101, 17.223, -66.8995
190, 0.00000, 2309.26, 113.284, 0, 0, 15.0803, 113.284, 15.0803, -66.7157
191, 0.00000, 2329.99, 113.774, 0, 0, 12.5781, 113.774, 12.5781, -66.2264
192, 0.00000, 2345.27, 114.149, 0, 0, 10.4762, 114.145, 10.4762, -65.8551
193, 0.00000, 2356.16, 114.403, 0, 0, 8.50269, 114.403, 8.50269, -65.597
194, 0.00000, 2356.32, 114.403, 0, 0, 7.77712, 114.403, 7.77712, -65.5968
195, 0.00000, 2357.43, 114.433, 0, 0, 7.6261, 114.433, 7.6261, -65.567
196, 0.00000, 2357.67, 114.44, 0, 0, 7.57312, 114.44, 7.57312, -65.5602
197, 0.00000, 2349.67, 114.253, 0, 0, 8.46989, 114.255, 8.46989, -65.7446
198, 0.00000, 2343.49, 114.11, 0, 0, 10.4034, 114.112, 10.4034, -65.8885
199, 0.00000, 2314.22, 113.415, 0, 0, 12.5006, 113.415, 12.5006, -66.5846
200, 0.00000, 2319.68, 113.54, 0, 0, 11.3931, 113.541, 11.3931, -66.459
201, 0.00000, 2303.87, 113.151, 0, 0, 10.0125, 113.151, 10.0125, -66.8488
202, 0.00000, 2313.18, 113.373, 0, 0, 8.8964, 113.373, 8.8964, -66.6273
203, 0.00000, 2323.64, 113.635, 0, 0, 7.66273, 113.635, 7.66273, -66.3648
204, 0.00000, 2324.16, 113.652, 0, 0, 7.70605, 113.652, 7.70605, -66.3479
205, 0.00000, 2325.14, 113.677, 0, 0, 7.64589, 113.677, 7.64589, -66.3227
206, 0.00000, 2327.05, 113.721, 0, 0, 7.46243, 113.721, 7.46243, -66.2785
207, 0.00000, 2326.9, 113.717, 0, 0, 7.39691, 113.717, 7.39691, -66.2826
208, 0.00000, 2325.25, 113.68, 0, 0, 7.96543, 113.68, 7.96543, -66.32
209, 0.00000, 2319.2, 113.545, 0, 0, 11.1191, 113.544, 11.1191, -66.4561
210, 0.00000, 2307.06, 113.262, 0, 0, 15.4799, 113.257, 15.4799, -66.7426
211, 0.00000, 2295.38, 112.977, 0, 0, 17.7702, 112.977, 17.7702, -67.0228
212, 0.00000, 2295.97, 112.986, 0, 0, 17.3608, 112.986, 17.3608, -67.0145
213, 0.00000, 2301.11, 113.101, 0, 0, 17.223, 113.101, 17.223, -66.8995
214, 0.00000, 2309.26, 113.284, 0, 0, 15.0803, 113.284, 15.0803, -66.7157
215, 0.00000, 2329.99, 113.774, 0, 0, 12.5781, 113.774, 12.5781, -66.2264
216, 0.00000, 2345.27, 114.149, 0, 0, 10.4762, 114.145, 10.4762, -65.8551
217, 0.00000, 2356.16, 114.403, 0, 0, 8.50269, 114.403, 8.50269, -65.597
218, 0.00000, 2356.32, 114.403, 0, 0, 7.77712, 114.403, 7.77712, -65.5968
219, 0.00000, 2357.43, 114.433, 0, 0, 7.6261, 114.433, 7.6261, -65.567
220, 0.00000, 2357.67, 114.44, 0, 0, 7.57312, 114.44, 7.57312, -65.5602
221, 0.00000, 2349.67, 114.253, 0, 0, 8.46989, 114.255, 8.46989, -65.7446
222, 0.00000, 2343.49, 114.11, 0, 0, 10.4034, 114.112, 10.4034, -65.8885
223, 0.00000, 2314.22, 113.415, 0, 0, 12.5006, 113.415, 12.5006, -66.5846
224, 0.00000, 2319.68, 113.54, 0, 0, 11.3931, 113.541, 11.3931, -66.459
225, 0.00000, 2303.87, 113.151, 0, 0, 10.0125, 113.151, 10.0125, -66.8488
226, 0.00000, 2313.18, 113.373, 0, 0, 8.8964, 113.373, 8.8964, -66.6273
227, 0.00000, 2323.64, 113.635, 0, 0, 7.66273, 113.635, 7.66273, -66.3648
228, 0.00000, 2324.16, 113.652, 0, 0, 7.70605, 113.652, 7.70605, -66.3479
229, 0.00000, 2325.14, 113.677, 0, 0, 7.64589, 113.677, 7.64589, -66.3227
230, 0.00000, 2327.05, 113.721, 0, 0, 7.46243, 113.721, 7.46243, -66.2785
231, 0.00000, 2326.9, 113.717, 0, 0, 7.39691, 113.717, 7.39691, -66.2826
232, 0.00000, 2325.25, 113.68, 0, 0, 7.96543, 113.68, 7.96543, -66.32
233, 0.00000, 2319.2, 113.545, 0, 0, 11.1191, 113.544, 11.1191, -66.4561
234, 0.00000, 2307.06, 113.262, 0, 0, 15.4799, 113.257, 15.4799, -66.7426
235, 0.00000, 2295.38, 112.977, 0, 0, 17.7702, 112.977, 17.7702, -67.0228
236, 0.00000, 2295.97, 112.986, 0, 0, 17.3608, 112.986, 17.3608, -67.0145
237, 0.00000, 2301.11, 113.101, 0, 0, 17.223, 113.101, 17.223, -66.8995
238, 0.00000, 2309.26, 113.284, 0, 0, 15.0803, 113.284, 15.0803, -66.7157
239, 0.00000, 2329.99, 113.774, 0, 0, 12.5781, 113.774, 12.5781, -66.2264
240, 0.00000, 2345.27, 114.149, 0, 0, 10.4762, 114.145, 10.4762, -65.8551
241, 0.00000, 2356.16, 114.403, 0, 0, 8.50269, 114.403, 8.50269, -65.597
242, 0.00000, 2356.32, 114.403, 0, 0, 7.77712, 114.403, 7.77712, -65.5968
243, 0.00000, 2357.43, 114.433, 0, 0, 7.6261, 114.433, 7.6261, -65.567
244, 0.00000, 2357.67, 114.44, 0, 0, 7.57312, 114.44, 7.57312, -65.5602
245, 0.00000, 2349.67, 114.253, 0, 0, 8.46989, 114.255, 8.46989, -65.7446
246, 0.00000, 2343.49, 114.11, 0, 0, 10.4034, 114.112, 10.4034, -65.8885
247, 0.00000, 2314.22, 113.415, 0, 0, 12.5006, 113.415, 12.5006, -66.5846
248, 0.00000, 2319.68, 113.54, 0, 0, 11.3931, 113.541, 11.3931, -66.459
249, 0.00000, 2303.87, 113.151, 0, 0, 10.0125, 113.151, 10.0125, -66.8488
250, 0.00000, 2313.18, 113.373, 0, 0, 8.8964, 113.373, 8.8964, -66.6273
251, 0.00000, 2323.64, 113.635, 0, 0, 7.66273, 113.635, 7.66273, -66.3648
252, 0.00000, 2324.16, 113.652, 0, 0, 7.70605, 113.652, 7.70605, -66.3479
253, 0.00000, 2325.14, 113.677, 0, 0, 7.64589, 113.677, 7.64589, -66.3227
254, 0.00000, 2327.05, 113.721, 0, 0, 7.46243, 113.721, 7.46243, -66.2785
255, 0.00000, 2326.9, 113.717, 0, 0, 7.39691, 113.717, 7.39691, -66.2826
256, 0.00000, 2325.25, 113.68, 0, 0, 7.96543, 113.68, 7.96543, -66.32
257, 0.00000, 2319.2, 113.545, 0, 0, 11.1191, 113.544, 11.1191, -66.4561
258, 0.00000, 2307.06, 113.262, 0, 0, 15.4799, 113.257, 15.4799, -66.7426
259, 0.00000, 2295.38, 112.977, 0, 0, 17.7702, 112.977, 17.7702, -67.0228
260, 0.00000, 2295.97, 112.986, 0, 0, 17.3608, 112.986, 17.3608, -67.0145
261, 0.00000, 2301.11, 113.101, 0, 0, 17.223, 113.101, 17.223, -66.8995
262, 0.00000, 2309.26, 113.284, 0, 0, 15.0803, 113.284, 15.0803, -66.7157
263, 0.00000, 2329.99, 113.774, 0, 0, 12.5781, 113.774, 12.5781, -66.2264
264, 0.00000, 2345.27, 114.149, 0, 0, 10.4762, 114.145, 10.4762, -65.8551
265, 0.00000, 2356.16, 114.403, 0, 0, 8.50269, 114.403, 8.50269, -65.597
266, 0.00000, 2356.32, 114.403, 0, 0, 7.77712, 114.403, 7.77712, -65.5968
267, 0.00000, 2357.43, 114.433, 0, 0, 7.6261, 114.433, 7.6261, -65.567
268, 0.00000, 2357.67, 114.44, 0, 0, 7.57312, 114.44, 7.57312, -65.5602
269, 0.00000, 2349.67, 114.253, 0, 0, 8.46989, 114.255, 8.46989, -65.7446
270, 0.00000, 2343.49, 114.11, 0, 0, 10.4034, 114.112, 10.4034, -65.8885
271, 0.00000, 2314.22, 113.415, 0, 0, 12.5006, 113.415, 12.5006, -66.5846
272, 0.00000, 2319.68, 113.54, 0, 0, 11.3931, 113.541, 11.3931, -66.459
273, 0.00000, 2303.87, 113.151, 0, 0, 10.0125, 113.151, 10.0125, -66.8488
